#  HZ   S   RI   R     50.00 
! Rohde & Schwarz Vector Network Analyzer 
! Rohde-Schwarz,ZNA43-4Port,1332450044101932,2.92
! Created: UTC 4/16/2025, 7:26:58 AM
! freq[Hz]                re:S11                  im:S11                  re:S21                  im:S21                  re:S12                  im:S12                  re:S22                  im:S22
 1.500000000000000E+10  -1.832248978125381E-1   -9.534608584021073E-1    5.107111210856030E-6    5.788571204141827E-6   -6.368589068137208E-6   -4.073817660433622E-6   -2.206316764133031E-1   -9.439880331509878E-1
 1.501000000000000E+10  -1.892894666121601E-1   -9.506790455348403E-1    1.011281391910404E-5   -1.234703756764782E-6   -1.385529560491801E-5   -2.903117785981373E-5   -2.274779908734369E-1   -9.427610651311144E-1
 1.502000000000000E+10  -1.963409360623900E-1   -9.479606450417929E-1    4.306027657823657E-6    2.487668239675685E-6   -9.700238709989284E-6    2.583498357099100E-6   -2.341746606063620E-1   -9.418858752575088E-1
 1.503000000000000E+10  -2.037502407918601E-1   -9.459407188952180E-1    1.288170327279123E-5   -1.330624585590106E-5   -6.069105558780516E-6    2.592019215806188E-6   -2.403498500792915E-1   -9.414721084306874E-1
 1.504000000000000E+10  -2.113012010994212E-1   -9.444921076795896E-1   -4.304188608545524E-6   -2.108117584838143E-5   -3.457018717238779E-6    5.068877175503382E-6   -2.458821405932501E-1   -9.411611000101586E-1
 1.505000000000000E+10  -2.189041241418037E-1   -9.437810350722048E-1    7.597393452641011E-6    2.359047281526471E-5   -9.366661831207342E-6   -1.896438643997022E-6   -2.511133633508347E-1   -9.404790372476716E-1
 1.506000000000000E+10  -2.260615581375660E-1   -9.437262007450503E-1    1.710694295765423E-5    1.272342309366030E-5   -1.263205117528942E-7   -6.670993131523851E-7   -2.558963827308410E-1   -9.394339520798159E-1
 1.507000000000000E+10  -2.323241701220540E-1   -9.438170614150266E-1    1.632545240551547E-6    3.211738905458384E-6    1.171599541601620E-6   -1.158663664718587E-6   -2.606621679103988E-1   -9.376801009565624E-1
 1.508000000000000E+10  -2.376583465893090E-1   -9.438514369047012E-1   -5.050426474997199E-6    1.159680236052631E-5    1.676689436049888E-6    7.817408090884373E-6   -2.656038176125510E-1   -9.353360131526880E-1
 1.509000000000000E+10  -2.421220426483112E-1   -9.433635797622621E-1   -1.282715565584825E-5   -9.690226943992963E-6    7.500306723052217E-6    2.994875778713430E-6   -2.710503462750704E-1   -9.326808654631427E-1
 1.510000000000000E+10  -2.462305954543571E-1   -9.421334801271596E-1   -9.566544706036305E-6   -2.002398576863624E-5   -1.583270720790081E-5   -2.605262882933767E-5   -2.768208294573685E-1   -9.300524695207444E-1
 1.511000000000000E+10  -2.504740970053820E-1   -9.401479585821684E-1    1.775539578457263E-5   -1.510118796548683E-5    1.150639404811764E-5   -2.445408633679388E-5   -2.832458721313511E-1   -9.274799900017150E-1
 1.512000000000000E+10  -2.551305905006307E-1   -9.374826510893903E-1   -6.238528396637993E-6   -7.085173840996978E-6   -1.136977824875427E-5   -1.264584989528866E-5   -2.899507548080157E-1   -9.252526810861100E-1
 1.513000000000000E+10  -2.604537959877282E-1   -9.342193464832496E-1   -3.539672668104697E-6    7.862333330985369E-6   -7.524171424334849E-6   -1.297818065232910E-5   -2.968098325799898E-1   -9.234124232076812E-1
 1.514000000000000E+10  -2.667275809930851E-1   -9.311291957915117E-1   -3.389347451401172E-5    2.015958746335471E-5    5.010320334114916E-6   -1.386479804779478E-5   -3.035762951097724E-1   -9.219996748615540E-1
 1.515000000000000E+10  -2.733203294214323E-1   -9.287227557822950E-1   -4.617122928139579E-6   -2.533785331432209E-6   -2.179665662655718E-5    1.331327502404479E-5   -3.099718749377415E-1   -9.209842035852670E-1
 1.516000000000000E+10  -2.804819759047466E-1   -9.267065879110458E-1    1.387430870935129E-6   -8.297685356993458E-6    2.564622574908468E-5    8.642394212769237E-6   -3.156856476367340E-1   -9.201080579761346E-1
 1.517000000000000E+10  -2.875368772400604E-1   -9.252370310615993E-1    1.872446684262382E-5   -2.120888504291141E-5    2.524292123936555E-6    1.539666635401814E-5   -3.207210138501901E-1   -9.190396991248762E-1
 1.518000000000000E+10  -2.947093350272557E-1   -9.243665309646085E-1    4.565965841208059E-6   -1.558256587302961E-5   -1.080556017738334E-5   -4.422395558840251E-7   -3.254429596471843E-1   -9.176607977800199E-1
 1.519000000000000E+10  -3.010870715655086E-1   -9.238798497512121E-1    2.135018833638478E-5   -1.173145422031205E-5    1.453424916788040E-6   -5.802094465146279E-6   -3.300345207906850E-1   -9.156913189023224E-1
 1.520000000000000E+10  -3.068027650532549E-1   -9.232335794612876E-1    3.690974188112073E-6    1.320699370362246E-5    1.688693513206615E-5   -1.860666894545987E-6   -3.348085900423815E-1   -9.129728759247311E-1
 1.521000000000000E+10  -3.113268406390764E-1   -9.224325553498250E-1    1.160923934420859E-5    2.014378444308250E-6   -1.367110721363296E-5   -2.289771432387515E-5   -3.397674440953673E-1   -9.099420003014442E-1
 1.522000000000000E+10  -3.155225973817066E-1   -9.210346079979244E-1    1.358557132192765E-5   -1.191144907046331E-5   -5.413075273172797E-6   -1.198745145778118E-5   -3.452349254942607E-1   -9.067677322282285E-1
 1.523000000000000E+10  -3.197547404973092E-1   -9.188358963511447E-1   -6.556189720974081E-6   -1.370631752609047E-5   -3.541837116187637E-6   -1.878269381659280E-5   -3.511054063480465E-1   -9.036591073783292E-1
 1.524000000000000E+10  -3.241763747847653E-1   -9.157575089762321E-1   -4.039236903997673E-6   -1.326522417156987E-5   -1.913216357932192E-5    6.198533340777410E-6   -3.576176442357695E-1   -9.008629030597533E-1
 1.525000000000000E+10  -3.294367263462670E-1   -9.122885911050782E-1   -1.680156363977663E-5   -1.157108675828301E-5    1.128661529556881E-5    4.397182711083106E-6   -3.641833892513666E-1   -8.983973441669981E-1
 1.526000000000000E+10  -3.355021242145601E-1   -9.084543074666589E-1   -1.974432787563281E-5    1.054563959372583E-5    1.064648507096313E-5    1.604216281047523E-6   -3.707850646532285E-1   -8.962672285642190E-1
 1.527000000000000E+10  -3.423812099126410E-1   -9.050757907625626E-1    4.332317696232498E-6   -9.202091927215161E-6    3.045624517125262E-6   -1.438096619866099E-5   -3.770607614287992E-1   -8.947155619276310E-1
 1.528000000000000E+10  -3.494789954263005E-1   -9.022259040016423E-1    1.695582033182394E-5   -6.233351581232403E-6    1.380305451257768E-5   -1.864707861282254E-5   -3.827833231903865E-1   -8.933877642619448E-1
 1.529000000000000E+10  -3.567092700844569E-1   -9.000130388816947E-1   -3.261909758071593E-6   -5.013370664905363E-6    1.230427254471168E-7   -3.989421080753116E-6   -3.879703057392210E-1   -8.920424677847859E-1
 1.530000000000000E+10  -3.637143269162404E-1   -8.981802883925277E-1    4.802371957760736E-6   -8.504085956113065E-6   -1.669100029451988E-6    1.689803327309143E-5   -3.927868667579064E-1   -8.901732078469029E-1
 1.531000000000000E+10  -3.706737106217937E-1   -8.973469127514517E-1   -1.665657786883283E-7   -1.767138099829152E-6    1.633993719379023E-5    9.991003491317815E-6   -3.974824989678146E-1   -8.880314616647191E-1
 1.532000000000000E+10  -3.763926953896451E-1   -8.965800348205132E-1   -5.039953485976328E-6    1.241462701403762E-6    1.132156360438465E-5   -2.561685184453506E-5   -4.020933187894128E-1   -8.851171931540034E-1
 1.533000000000000E+10  -3.811590633798646E-1   -8.960093050228410E-1    6.533405963424542E-6    1.445592270777295E-5   -8.345310869243347E-7    8.267426720371666E-6   -4.070339541372044E-1   -8.817538808457028E-1
 1.534000000000000E+10  -3.851778164976971E-1   -8.946592601441770E-1    1.668853203501820E-7   -7.797532328956667E-6   -1.001062072717051E-5    8.904564470415930E-6   -4.124644390651271E-1   -8.782022893814685E-1
 1.535000000000000E+10  -3.888248164482359E-1   -8.924890263819580E-1    2.012013768457341E-6    1.646170710438461E-5    6.019583690010827E-6   -1.660793144397034E-5   -4.183035690740096E-1   -8.746555304246202E-1
 1.536000000000000E+10  -3.927103761809368E-1   -8.894404209845560E-1    2.050872006509934E-7    1.912220790091617E-5   -1.526739506062959E-6    7.780254164668697E-7   -4.246369574605536E-1   -8.714012131029217E-1
 1.537000000000000E+10  -3.973490695548087E-1   -8.856115101169925E-1    5.848818237464717E-6    2.547993071261182E-6    1.035423380711092E-5    9.301636077288892E-8   -4.311968941497490E-1   -8.685190546602353E-1
 1.538000000000000E+10  -4.028052270446965E-1   -8.813190605503626E-1    3.176812871494511E-8    6.380975957974164E-6   -7.011702284207715E-7    2.218657549759566E-5   -4.378087453074990E-1   -8.658998231023398E-1
 1.539000000000000E+10  -4.091098993983466E-1   -8.774658931208213E-1   -2.663134711142451E-5    1.826174171297185E-5   -1.400889747909433E-5   -8.952607413981018E-6   -4.440554198946746E-1   -8.637753703805452E-1
 1.540000000000000E+10  -4.160265601001568E-1   -8.738992341499768E-1    8.878409561466662E-6    1.438260050120963E-6   -1.901741644120986E-6    7.793078158025790E-6   -4.497807892502882E-1   -8.618880371969500E-1
 1.541000000000000E+10  -4.235462419596459E-1   -8.708141158381305E-1   -2.525796458602504E-5   -9.659232416597746E-6   -1.207059228484439E-5   -1.675812695879296E-5   -4.550219483649525E-1   -8.599496911016528E-1
 1.542000000000000E+10  -4.309120214220120E-1   -8.681959888041584E-1   -1.813142974861780E-5    3.918727358122492E-6   -1.432448692346014E-5   -2.266201288425195E-5   -4.599015770615680E-1   -8.578593999898004E-1
 1.543000000000000E+10  -4.380235970025070E-1   -8.664090651532379E-1    2.465145165516152E-6   -1.165510872714425E-5   -5.200301249672372E-6   -1.323299289510003E-5   -4.643451885066144E-1   -8.552754185121080E-1
 1.544000000000000E+10  -4.440314805042916E-1   -8.649552569353590E-1    1.868080683270227E-5    3.924056373231200E-6    1.226682065732783E-5    1.269660596748914E-5   -4.687221378374936E-1   -8.520593313773366E-1
 1.545000000000000E+10  -4.491216568774474E-1   -8.638330802264461E-1    2.002107721187551E-6   -3.789418561125651E-7   -2.483422783620207E-6    8.055357479197578E-6   -4.732419898291446E-1   -8.484269335174902E-1
 1.546000000000000E+10  -4.532303705385929E-1   -8.622986359430403E-1   -1.522722484196037E-5   -4.672128460520598E-7   -4.160780585920143E-6    1.211320695266978E-5   -4.785281604829451E-1   -8.445111135623994E-1
 1.547000000000000E+10  -4.565701497436027E-1   -8.601136370017275E-1    2.830360862078069E-6    1.094882273187091E-5   -5.399866771619654E-6   -8.064308629921852E-6   -4.839705145954197E-1   -8.404418102272028E-1
 1.548000000000000E+10  -4.598530825568864E-1   -8.571917879898532E-1   -1.614590163190772E-5    1.658661602481912E-5   -6.034972328900760E-6    1.294280021776004E-6   -4.898192877507279E-1   -8.366188519016905E-1
 1.549000000000000E+10  -4.635466584765567E-1   -8.535477731192551E-1    1.475199342013114E-6   -1.356974526621107E-5   -7.832949549357795E-6   -1.138126821164953E-6   -4.959129776564515E-1   -8.331886057222059E-1
 1.550000000000000E+10  -4.680118986308998E-1   -8.491549537343129E-1    6.805453273655408E-6    9.498705759626335E-7   -6.607829027702656E-6    4.903287515047846E-6   -5.021210097861653E-1   -8.301158544915060E-1
 1.551000000000000E+10  -4.736141296770918E-1   -8.446981549912020E-1   -2.387065219295823E-6    9.776386325574534E-6   -7.011758393484296E-7   -1.927157103219157E-5   -5.081081915317579E-1   -8.277017859256915E-1
 1.552000000000000E+10  -4.799881953156450E-1   -8.404363093222897E-1   -7.548020006224816E-6   -1.151447037526127E-5    1.218082722733973E-5    1.060900364111399E-5   -5.136225909507652E-1   -8.256718159164194E-1
 1.553000000000000E+10  -4.870466855940132E-1   -8.364641014470408E-1    5.984295884224218E-6    5.669233710132113E-7    1.125150146344510E-5    1.428921878938192E-5   -5.185900811800641E-1   -8.233780267386984E-1
 1.554000000000000E+10  -4.942605014443802E-1   -8.331127549458831E-1   -1.114202698534507E-5    1.709066346964966E-5   -8.749625973938676E-6    9.592882410816522E-6   -5.230778949875745E-1   -8.209081019942190E-1
 1.555000000000000E+10  -5.013543420457304E-1   -8.304738094680701E-1    1.585523431396228E-5    8.454862342594814E-6    5.877299042780131E-6   -4.615162155010084E-7   -5.272707196774062E-1   -8.179125036332814E-1
 1.556000000000000E+10  -5.078814654187954E-1   -8.282565191287660E-1    1.858047916940161E-5   -8.905017324585778E-8    7.104900681162644E-6   -2.942327043030121E-6   -5.314949765578511E-1   -8.142754344449471E-1
 1.557000000000000E+10  -5.135454506346704E-1   -8.262284883370674E-1    7.962507303779740E-6   -6.074684461263082E-6    7.588912260110279E-6    1.002447877040191E-5   -5.360242756695867E-1   -8.100630113345881E-1
 1.558000000000000E+10  -5.180169808674111E-1   -8.242717573614775E-1   -1.596789905740597E-5    1.056944706915725E-8    2.442258338761875E-5    1.312382581091863E-6   -5.408657824504014E-1   -8.056552105776394E-1
 1.559000000000000E+10  -5.216673469207734E-1   -8.218141548216293E-1   -3.645279640442969E-6   -1.143129910797036E-5    1.562526181048896E-6   -9.754313556172514E-6   -5.461789537408719E-1   -8.010302018096001E-1
 1.560000000000000E+10  -5.249924848778754E-1   -8.189199454126090E-1   -6.334982400431789E-6   -4.085361232230938E-6    1.945645783313775E-5    2.025218526213168E-5   -5.519211579630109E-1   -7.966364135933557E-1
 1.561000000000000E+10  -5.284927537256741E-1   -8.152105740981767E-1    1.811352847168559E-5   -8.287714787148267E-6   -9.197501938215948E-7   -1.147109010955485E-5   -5.581234567603670E-1   -7.926208916448744E-1
 1.562000000000000E+10  -5.326166341897300E-1   -8.109608053667591E-1    1.304294729606672E-5   -1.358063917622553E-5   -2.258449420184435E-6    3.509964838803334E-6   -5.643465972682826E-1   -7.890474740074233E-1
 1.563000000000000E+10  -5.372340658980637E-1   -8.064132461326557E-1    3.074501452597994E-6    5.636872876010338E-6   -2.248565973473533E-5    4.107849235114517E-7   -5.703845269588269E-1   -7.861040037073479E-1
 1.564000000000000E+10  -5.428893278269356E-1   -8.018512303018304E-1    8.435842356847989E-6    1.959884106411625E-5   -8.708267488412107E-6   -2.240678484848078E-5   -5.757206500836634E-1   -7.835432179515307E-1
 1.565000000000000E+10  -5.490015020388981E-1   -7.975484829394197E-1    1.855947990084269E-6   -1.836329123265167E-5   -5.054543839499891E-6   -2.261092590230575E-6   -5.805273545448961E-1   -7.811094059241157E-1
 1.566000000000000E+10  -5.559514450069658E-1   -7.935176129005528E-1   -1.258435913551737E-6    1.318365615816617E-5   -1.173567903778089E-5    1.475946474023600E-5   -5.849129343824968E-1   -7.784400162600216E-1
 1.567000000000000E+10  -5.627643716920280E-1   -7.901017549674303E-1    1.334433420981256E-5    2.423555664096880E-5    2.484387254038921E-5    1.380907340269647E-5   -5.885929583996298E-1   -7.753664873241073E-1
 1.568000000000000E+10  -5.690082038742931E-1   -7.872689212463797E-1    9.271749976616254E-6    4.463746770754329E-6   -1.201915418494721E-6    1.289175292403457E-5   -5.923064605660860E-1   -7.718503903659750E-1
 1.569000000000000E+10  -5.744517099474538E-1   -7.847560660583127E-1   -1.888611245185953E-5   -2.917707619276108E-6   -1.123937538657615E-6   -6.431451849248499E-6   -5.960188795583579E-1   -7.677008531254621E-1
 1.570000000000000E+10  -5.790294893503516E-1   -7.823200573235768E-1   -6.790710463670314E-6   -2.779815461550777E-6    1.883837660154516E-5    7.661515945736903E-6   -6.001230257836424E-1   -7.630646295029273E-1
 1.571000000000000E+10  -5.827417517047465E-1   -7.794734672537433E-1    1.344512754865224E-5    1.696596284263188E-6    5.469268397785476E-7   -2.984602968723685E-5   -6.048411720188569E-1   -7.579833398280570E-1
 1.572000000000000E+10  -5.859970210709761E-1   -7.763093680976663E-1    8.364014613148018E-6    1.960104169567091E-6    7.459482859331909E-6   -1.398224550140329E-5   -6.100287971669434E-1   -7.529808124901187E-1
 1.573000000000000E+10  -5.891869629881329E-1   -7.722657068677043E-1    1.309733115696318E-5    1.865042288705957E-5    5.166127634181986E-6   -4.196463514779540E-6   -6.157576185454841E-1   -7.482016794266113E-1
 1.574000000000000E+10  -5.926338241987654E-1   -7.678542494771623E-1   -2.323251990101886E-5    7.676657775508891E-7    5.650274119896148E-6   -1.321246829981714E-5   -6.217532416421314E-1   -7.439801317466211E-1
 1.575000000000000E+10  -5.969003469830977E-1   -7.629347936648092E-1   -1.828045201149983E-5   -5.652109759162408E-6    1.340205268100941E-5   -3.996322983601699E-6   -6.276145527200493E-1   -7.402198812231104E-1
 1.576000000000000E+10  -6.020895259069617E-1   -7.576500000389000E-1   -1.693720819011994E-5   -9.158590082938829E-6    1.045413683706171E-7    2.162816646404976E-6   -6.331938883546505E-1   -7.368106051786200E-1
 1.577000000000000E+10  -6.080253356776658E-1   -7.525967188502236E-1   -2.761696153526346E-5   -1.422138910016693E-6    7.328062524986870E-6   -9.727623111033066E-6   -6.383098240349788E-1   -7.335616828081314E-1
 1.578000000000000E+10  -6.144218713614046E-1   -7.478745108286866E-1    1.960994049271779E-6    8.960929194009150E-6   -3.491396469612923E-7    6.376088509239784E-6   -6.426611316005552E-1   -7.303529278612189E-1
 1.579000000000000E+10  -6.209636273078720E-1   -7.436868613275998E-1   -2.441647371733876E-6   -9.976363523675230E-6   -1.199619732800197E-5    1.354826067695010E-5   -6.466081580997196E-1   -7.269680489867737E-1
 1.580000000000000E+10  -6.273354794064816E-1   -7.400268626835963E-1   -5.354009231777824E-6    6.329293474535246E-6    4.526038581491290E-6   -2.658873307760096E-6   -6.502042934395014E-1   -7.230567639358237E-1
 1.581000000000000E+10  -6.330402741335139E-1   -7.367193263001766E-1   -4.342501031306753E-6   -5.331405253772158E-6    7.302241437091854E-6    1.690270500630941E-6   -6.537018734754653E-1   -7.186008519747368E-1
 1.582000000000000E+10  -6.376952941955807E-1   -7.336080580712926E-1   -1.982358897301831E-6   -1.755612613498687E-6   -3.728225379501209E-6    1.577734299868702E-5   -6.574402078315652E-1   -7.137009391049287E-1
 1.583000000000000E+10  -6.416570191920177E-1   -7.305436086814824E-1   -2.195044289265487E-6    1.383718418750510E-5   -1.341488092443596E-5    1.667717259514691E-5   -6.615240756204741E-1   -7.085707249381614E-1
 1.584000000000000E+10  -6.451062112775775E-1   -7.270040871876688E-1   -3.558506041127248E-6    5.601811766935093E-6    2.419438885077918E-5    5.634069464603025E-6   -6.661587341986647E-1   -7.034353727435068E-1
 1.585000000000000E+10  -6.481561912183349E-1   -7.229690858014665E-1   -1.021732577577396E-6   -1.019552569142876E-5   -6.846290199359835E-6   -2.191917684692896E-5   -6.712512445229738E-1   -6.985319142232608E-1
 1.586000000000000E+10  -6.513770256683658E-1   -7.183445964537860E-1   -2.173713188771660E-6    2.573960571264063E-5    1.115577556968834E-5   -7.964675708447807E-6   -6.765754413840527E-1   -6.940180829671874E-1
 1.587000000000000E+10  -6.551961726473646E-1   -7.132858545458011E-1    8.315780466484249E-7    1.826808029728106E-6    6.101943227920058E-6    9.575455133031476E-6   -6.818568180147606E-1   -6.898355984718864E-1
 1.588000000000000E+10  -6.596938645365241E-1   -7.080131877396197E-1    2.725157915786882E-6   -1.268058838416798E-5    5.351559751775641E-6    3.095949225525088E-6   -6.870752656802641E-1   -6.859532447448862E-1
 1.589000000000000E+10  -6.650322305035210E-1   -7.027778462694723E-1   -6.898955963824069E-6    8.030262946796607E-6   -1.224557048313394E-5    2.367551649085078E-6   -6.919140360268716E-1   -6.821519902811780E-1
 1.590000000000000E+10  -6.708981758446880E-1   -6.977144513145347E-1   -5.818733374009369E-6   -1.119495506605908E-6   -4.474577591621074E-6    1.042595664539422E-5   -6.962279713251753E-1   -6.783620686208792E-1
