#  HZ   S   RI   R     50.00 
! Rohde & Schwarz Vector Network Analyzer 
! Rohde-Schwarz,ZNA43-4Port,1332450044101932,2.92
! Created: UTC 4/16/2025, 7:30:10 AM
! freq[Hz]                re:S11                  im:S11                  re:S21                  im:S21                  re:S12                  im:S12                  re:S22                  im:S22
 1.500000000000000E+10  -1.773920550095756E-1   -9.569487893629453E-1   -4.142654879035937E-6    1.517379646543068E-5   -1.099714028346011E-5    1.859087609372440E-5   -2.235300622016902E-1   -9.414139230215720E-1
 1.501000000000000E+10  -1.834394779771545E-1   -9.538369765465551E-1   -2.119144175633940E-5   -1.130907105053121E-5    2.201393590206874E-5   -1.772374923376281E-5   -2.306303912356314E-1   -9.401251544671403E-1
 1.502000000000000E+10  -1.905035408395289E-1   -9.508902794807012E-1    1.446135173064618E-6    1.135733508320896E-6    1.631250115503327E-5    1.713647720587997E-5   -2.375356603192319E-1   -9.395368155137529E-1
 1.503000000000000E+10  -1.981222838472360E-1   -9.486654506176099E-1    1.405301717486133E-5    1.521917531925405E-5   -9.108028664402425E-6    2.434762147077580E-6   -2.438210833435555E-1   -9.393984489406763E-1
 1.504000000000000E+10  -2.059597711051576E-1   -9.472151043282513E-1    1.097781382625536E-5    3.330193360330369E-6    1.082915677214471E-5    5.676290794926970E-6   -2.493581610617335E-1   -9.393129297468177E-1
 1.505000000000000E+10  -2.139235668662092E-1   -9.466027787931739E-1    9.837223888011262E-6    3.279065068189868E-6    5.359605856891905E-6   -2.311879022776829E-5   -2.544131866288957E-1   -9.389118380223813E-1
 1.506000000000000E+10  -2.213925641172183E-1   -9.468677581104246E-1   -8.427979781267880E-6    1.118689505073144E-5   -5.715774610228936E-6    1.760725035769123E-5   -2.589296976317220E-1   -9.379863161958252E-1
 1.507000000000000E+10  -2.278326772870200E-1   -9.473083297100202E-1    2.616794821877499E-5   -1.735151968536188E-5    1.163169036574701E-5    1.086011850667145E-5   -2.634339371855379E-1   -9.361833289699192E-1
 1.508000000000000E+10  -2.331977340040933E-1   -9.476604616091326E-1    1.013525487172442E-5   -1.855510394723417E-5   -1.649517212855043E-6   -4.343307877646787E-6   -2.680641792948213E-1   -9.336873674190881E-1
 1.509000000000000E+10  -2.375308192345136E-1   -9.474457721683139E-1   -1.450615283612958E-5    6.434274196189650E-6    3.001019943551668E-6    6.239209161210853E-6   -2.733523194412857E-1   -9.308567324174962E-1
 1.510000000000000E+10  -2.414091815070460E-1   -9.463677318456142E-1   -7.147182964506461E-6    1.226050376492982E-5   -3.846870917726312E-7    5.110864655218490E-6   -2.791045267895434E-1   -9.277940784914559E-1
 1.511000000000000E+10  -2.453580689062766E-1   -9.443487755077071E-1    5.529014930226561E-6    6.656639804200274E-6   -1.075180016441143E-6    1.795692826003650E-5   -2.856311818799674E-1   -9.249555775071786E-1
 1.512000000000000E+10  -2.497168187331537E-1   -9.414163149522641E-1    3.471849699929508E-6   -2.410776507113590E-6   -8.982331002718014E-6   -1.595996862121162E-6   -2.925516260845008E-1   -9.226262244174829E-1
 1.513000000000000E+10  -2.549843407122837E-1   -9.379327648915110E-1    6.992264796412641E-6   -1.138574564743060E-5   -1.234687860405415E-5    1.747699277689157E-5   -2.995588652025759E-1   -9.207653975923474E-1
 1.514000000000000E+10  -2.612177487030197E-1   -9.346444980769778E-1   -1.145293735444856E-5   -6.713450037948887E-6   -8.237814503262053E-6   -1.258006338378032E-5   -3.066059369546938E-1   -9.194232651718537E-1
 1.515000000000000E+10  -2.679676080211636E-1   -9.320708859820984E-1    9.142078014407446E-6   -1.709050728181803E-5    1.171377852296277E-5    1.483485803098869E-6   -3.130136251106803E-1   -9.186660549879023E-1
 1.516000000000000E+10  -2.754107904429654E-1   -9.300248234802458E-1   -7.801672841659792E-6    6.636633687062909E-6    3.325113543159570E-5    1.022853487294122E-5   -3.187136373721727E-1   -9.180055267504650E-1
 1.517000000000000E+10  -2.828323904388304E-1   -9.286878586617424E-1    3.109901076167165E-5    1.912482205204839E-5   -1.508673467414835E-5    1.303355748758138E-5   -3.235938163254286E-1   -9.171567063797209E-1
 1.518000000000000E+10  -2.903493784612640E-1   -9.280437683857455E-1   -1.583286765448478E-5    3.435646784925541E-6    9.139358861069672E-6    4.672677323861295E-6   -3.281311018302967E-1   -9.158996420802356E-1
 1.519000000000000E+10  -2.968782125923448E-1   -9.278452028403287E-1   -1.836415949947592E-6    3.227499143060403E-5   -1.869191070294341E-5    1.764795527038184E-6   -3.324551943466977E-1   -9.138830414186545E-1
 1.520000000000000E+10  -3.026597502126516E-1   -9.275430865063924E-1    8.369481260954820E-6   -1.354266716065331E-5    1.400128146795541E-5    1.220080760616401E-5   -3.369649040824515E-1   -9.110403351084068E-1
 1.521000000000000E+10  -3.070145758034478E-1   -9.269545635871160E-1    4.745459499675672E-6   -1.497886398558100E-7   -3.163613734573713E-7    1.305210563890599E-7   -3.418168149794757E-1   -9.076757017809676E-1
 1.522000000000000E+10  -3.109626196702156E-1   -9.256894882911347E-1   -1.985528943151742E-5   -8.571928767926878E-6    6.890369700301492E-6   -8.483231017435301E-6   -3.473089295671866E-1   -9.042557088046382E-1
 1.523000000000000E+10  -3.148802253221104E-1   -9.234078846062844E-1    1.339259015096310E-5   -1.419982160332520E-5   -2.180435385167141E-6    1.216787277443756E-5   -3.533434861096340E-1   -9.009316993333844E-1
 1.524000000000000E+10  -3.190418176081724E-1   -9.202209041173137E-1    9.253669736974830E-6    4.909820240045966E-6    1.013766692188170E-5   -8.311416479310168E-6   -3.600740334292805E-1   -8.979947568751997E-1
 1.525000000000000E+10  -3.241378490351824E-1   -9.164333328753962E-1    2.818435458587665E-6    1.495820259495201E-5    6.172141018152411E-6   -1.215432628686382E-7   -3.669803916594752E-1   -8.955189824196799E-1
 1.526000000000000E+10  -3.302235764003493E-1   -9.123444342575192E-1   -1.227396937445773E-5    3.650410980427489E-6   -2.797323419992934E-5   -2.008273794927415E-5   -3.737966585442842E-1   -8.935723806192267E-1
 1.527000000000000E+10  -3.371406091145644E-1   -9.087590634684154E-1   -4.784069569121569E-6    2.754042150226044E-5    1.597180974921345E-5    6.953106111541309E-6   -3.801826808535459E-1   -8.922449247571200E-1
 1.528000000000000E+10  -3.445766134519292E-1   -9.057935225107920E-1   -1.460527726207904E-5    2.018717878407039E-5   -7.021608360339247E-6    5.003431987753388E-7   -3.859253434169358E-1   -8.912543349171195E-1
 1.529000000000000E+10  -3.521561760723100E-1   -9.036437902484802E-1   -8.998475253628616E-6   -3.839753323512945E-6   -1.845075710503478E-6    2.449454157718876E-6   -3.909695404974344E-1   -8.901764541753351E-1
 1.530000000000000E+10  -3.595449284570025E-1   -9.019876808433300E-1    1.094680769387759E-5   -8.082877031616440E-6   -7.353689147625534E-6   -5.461175504826104E-6   -3.955053520258278E-1   -8.884565817585273E-1
 1.531000000000000E+10  -3.667391837081930E-1   -9.014314170248822E-1   -1.840467202325215E-5   -1.371225847783870E-5    4.806252000855275E-6    2.141355496603989E-5   -3.998256022413655E-1   -8.863024140253123E-1
 1.532000000000000E+10  -3.725802192630202E-1   -9.010932251087514E-1    9.140666611500426E-6   -7.091540484163126E-6   -1.849898223901552E-6    9.307380415571283E-6   -4.041614653765635E-1   -8.831377476784671E-1
 1.533000000000000E+10  -3.773294554570252E-1   -9.007424313502830E-1   -8.438137558303882E-7   -1.106519518210176E-5   -1.336498241581604E-5   -1.107122654918615E-5   -4.089045171048454E-1   -8.795007514469217E-1
 1.534000000000000E+10  -3.811231678220477E-1   -8.996138861434297E-1    1.086775700594633E-6   -1.543747213179559E-5   -4.492315160645571E-6    1.621713502215116E-5   -4.143104836903794E-1   -8.756554362703883E-1
 1.535000000000000E+10  -3.845124507260266E-1   -8.974910023430522E-1   -5.221999072118584E-6   -2.735890391105679E-6    1.444960463909077E-5    2.050682110434432E-5   -4.202649811282517E-1   -8.718150604614374E-1
 1.536000000000000E+10  -3.880688553403063E-1   -8.942697161846841E-1    8.715133429931418E-6    6.791559311369444E-6   -1.544484884410613E-6   -1.122496708435840E-5   -4.268782121188993E-1   -8.683934232188425E-1
 1.537000000000000E+10  -3.925260885282875E-1   -8.901824540830139E-1    2.545073593535356E-6    4.840974897473276E-6   -8.898527298543772E-6   -1.556713873115654E-6   -4.337239246736927E-1   -8.654459594307096E-1
 1.538000000000000E+10  -3.979014037321804E-1   -8.856276887537478E-1   -4.178066074742236E-6   -9.706541306586543E-6   -3.464384589995624E-7   -7.388657724972896E-6   -4.406749230293712E-1   -8.629698380524509E-1
 1.539000000000000E+10  -4.044602839049060E-1   -8.815322243920760E-1   -1.690125812261887E-5   -6.580602296708998E-7    5.495605746295440E-6   -1.788069534337813E-6   -4.471230106442910E-1   -8.610970254660363E-1
 1.540000000000000E+10  -4.116943809122353E-1   -8.777220123302406E-1    4.235883208087772E-6   -1.600814225044862E-5   -2.048875325901371E-6    4.741830674689421E-6   -4.529065913810246E-1   -8.595498263388726E-1
 1.541000000000000E+10  -4.194841797408926E-1   -8.746407629068061E-1   -4.711597625356024E-6    2.867427665045600E-6   -1.120159926383830E-5   -8.264907374099843E-6   -4.580596110933604E-1   -8.579205249786541E-1
 1.542000000000000E+10  -4.272560490387588E-1   -8.722321518822819E-1   -2.725653389208045E-8    1.882383213170504E-6   -4.317717952012555E-6    4.673928681002099E-6   -4.627582405280745E-1   -8.560537564706128E-1
 1.543000000000000E+10  -4.346510287331548E-1   -8.707358492836531E-1   -4.500983246377274E-7   -8.028204805328922E-8   -8.245663368490313E-6    3.515593947661091E-6   -4.668697553187821E-1   -8.534901770381060E-1
 1.544000000000000E+10  -4.408537068147844E-1   -8.695858869218150E-1    7.352520015925451E-7   -6.841909248934975E-6   -8.071777349281927E-6    1.800957426590567E-5   -4.709565947191672E-1   -8.502371134849954E-1
 1.545000000000000E+10  -4.458579993826307E-1   -8.688262060915389E-1    1.566054281979716E-6   -6.421737995161880E-7    2.999394977181485E-5    1.933306392140984E-6   -4.752073617647097E-1   -8.463513629516592E-1
 1.546000000000000E+10  -4.497349433740521E-1   -8.674822719261834E-1   -2.992777370585670E-6    4.316558507876769E-6    1.038323287394870E-5   -9.350337924838147E-6   -4.803830566614339E-1   -8.421150594944048E-1
 1.547000000000000E+10  -4.527206976887601E-1   -8.653692285206277E-1   -5.833485491136373E-6    2.243048722405011E-5   -6.030452645776565E-6   -9.324224913965474E-6   -4.858395670722919E-1   -8.376528519533987E-1
 1.548000000000000E+10  -4.556603394294877E-1   -8.623179580283714E-1   -2.839271636109727E-5    1.162389265356206E-6    1.732192143812248E-5   -1.388599842311935E-5   -4.918391418946850E-1   -8.335114430565826E-1
 1.549000000000000E+10  -4.591094700572084E-1   -8.585525330401802E-1   -7.919668392201183E-8    1.078705776785400E-5   -2.480649320678530E-5    1.315335677350132E-5   -4.981838954269911E-1   -8.299877680794162E-1
 1.550000000000000E+10  -4.633988755662592E-1   -8.538866216734871E-1    4.104060031809914E-6   -2.501860470514310E-6   -2.274340200158743E-6   -3.065118094300228E-5   -5.047156028169086E-1   -8.269759367874125E-1
 1.551000000000000E+10  -4.690701147967082E-1   -8.491391780193643E-1   -1.692270642679779E-5    5.601609927919925E-6    1.595248797000421E-6    2.236844664478295E-6   -5.109334283012219E-1   -8.247029549685740E-1
 1.552000000000000E+10  -4.757051767905898E-1   -8.446584557863026E-1    1.684594906664449E-5    4.174662094406436E-6   -1.454335381359285E-5   -1.552121513004538E-5   -5.165303479699861E-1   -8.229201841928226E-1
 1.553000000000000E+10  -4.831247984404838E-1   -8.405941516464894E-1   -4.548999478888563E-6   -1.348498710273588E-5   -1.668334740426252E-5   -1.848403341172343E-6   -5.215288703831729E-1   -8.209405823191822E-1
 1.554000000000000E+10  -4.907132930336995E-1   -8.373850173162716E-1    1.669177172878249E-6   -7.674380437915613E-6   -3.491921523928735E-5    1.550387667579344E-5   -5.258699499140798E-1   -8.187271236243039E-1
 1.555000000000000E+10  -4.981150900277404E-1   -8.349347165986308E-1    2.549576845462434E-6   -2.528201803943822E-6    1.037510246651936E-5   -2.378496516831102E-5   -5.297620417350268E-1   -8.158605248984128E-1
 1.556000000000000E+10  -5.048359929387730E-1   -8.329888635734364E-1   -5.832351708172774E-6   -7.878556598518790E-7   -1.994952226452064E-6   -3.252935987117798E-7   -5.337112258906263E-1   -8.123026853459504E-1
 1.557000000000000E+10  -5.105190857118781E-1   -8.313785872092341E-1    3.319459789973580E-6   -3.858043717936487E-6    8.623071814104353E-6   -2.489518764359039E-6   -5.379304368106216E-1   -8.078976248928935E-1
 1.558000000000000E+10  -5.147734367324724E-1   -8.296426885283661E-1   -1.944072423999182E-6    9.911360330108921E-6   -9.700283377109074E-6    8.005572498102533E-6   -5.426141262996100E-1   -8.031914475456277E-1
 1.559000000000000E+10  -5.182085664316051E-1   -8.273440038285218E-1   -2.316898924946671E-6   -3.452359687686688E-6    1.171019048873929E-5   -8.567805313765781E-6   -5.478900135433055E-1   -7.982346331976221E-1
 1.560000000000000E+10  -5.211013088487723E-1   -8.243888800156429E-1   -1.775545962262996E-5    7.022895688672641E-6   -1.647425304826408E-5   -1.621441223425265E-5   -5.537131273778030E-1   -7.935657436491234E-1
 1.561000000000000E+10  -5.244097357834600E-1   -8.205671855007659E-1   -1.207527519134706E-6    1.129765987308271E-5    2.925582797525911E-6    8.284645778813107E-6   -5.601222621818048E-1   -7.894198014861968E-1
 1.562000000000000E+10  -5.283424763736406E-1   -8.160915088181960E-1   -4.851150867974194E-6    5.275066515552633E-6   -8.947215441739468E-6    6.717536716301497E-6   -5.666028298749723E-1   -7.858477251311776E-1
 1.563000000000000E+10  -5.330369718177449E-1   -8.113314551925060E-1    1.829221968513202E-7    1.411455057422911E-5    5.993451156622305E-6   -2.286722535884620E-6   -5.728465170683615E-1   -7.829943125054165E-1
 1.564000000000000E+10  -5.387672674919243E-1   -8.065869087752600E-1    3.636805613384519E-6   -8.790372291008772E-6   -9.414123975979024E-6    4.149397081528900E-6   -5.783758944679246E-1   -7.806066337589354E-1
 1.565000000000000E+10  -5.452622723380959E-1   -8.022182712619185E-1    2.436436410568129E-5   -1.426038400816316E-5   -4.166851576802650E-6    4.100349810605473E-6   -5.832808590134941E-1   -7.783868170727704E-1
 1.566000000000000E+10  -5.525995826341548E-1   -7.982281568772821E-1   -3.795978188875318E-6    1.038570757143090E-5    1.165864017673127E-5   -2.997118808420635E-6   -5.875248603931599E-1   -7.759242920144950E-1
 1.567000000000000E+10  -5.598177852652697E-1   -7.950576255425289E-1   -7.185150718374461E-6   -2.680492791522897E-5    4.363888410961863E-6   -2.949668323599355E-5   -5.909458998622541E-1   -7.728954145785304E-1
 1.568000000000000E+10  -5.662932037582125E-1   -7.924707885912201E-1    5.045291875125380E-6   -2.524399317881616E-5   -2.118260293466574E-5    6.355829667127658E-6   -5.944251673888682E-1   -7.692770453343493E-1
 1.569000000000000E+10  -5.717727613406104E-1   -7.902885109308825E-1    5.667321359164361E-6    1.353138387401065E-5   -1.428542616707704E-5    1.704656695447556E-5   -5.978492610262344E-1   -7.649076252391548E-1
 1.570000000000000E+10  -5.761632873147826E-1   -7.880478368784498E-1    1.626778558142375E-5    2.496822570768184E-6   -7.963220816099084E-6    4.171086621802622E-6   -6.017660291335947E-1   -7.599978864340179E-1
 1.571000000000000E+10  -5.796198817672096E-1   -7.854626049082972E-1   -2.469975442155589E-6    5.997192209944685E-8    5.398849091023048E-6    6.916050563089131E-6   -6.063730317701287E-1   -7.547165669997580E-1
 1.572000000000000E+10  -5.825288471647454E-1   -7.822049259956205E-1   -3.146828218225624E-6   -2.474564119611367E-5   -8.244962103116384E-6    1.292439401182854E-5   -6.117629121430781E-1   -7.494858413619269E-1
 1.573000000000000E+10  -5.854245923952007E-1   -7.781555946999704E-1    4.371918324436574E-6    5.403018975351908E-6    1.403985140799080E-5   -5.666354174383426E-6   -6.176760449080840E-1   -7.445829637079606E-1
 1.574000000000000E+10  -5.888329340740039E-1   -7.734832564622262E-1    3.576828271412838E-6    3.104012727957230E-6   -3.883648288219447E-6    2.896072314603349E-6   -6.239429425395290E-1   -7.402882337011809E-1
 1.575000000000000E+10  -5.929164921299994E-1   -7.683383291289786E-1   -3.347888572708175E-5    3.676855852056914E-6   -9.874707281100215E-7   -3.418011060917741E-5   -6.300225367845617E-1   -7.366469286814126E-1
 1.576000000000000E+10  -5.982916469481557E-1   -7.628741987741517E-1   -3.086056291795872E-5   -1.786701201980579E-5   -1.891580225087143E-6    1.207267615804638E-5   -6.357649578534801E-1   -7.334152477801850E-1
 1.577000000000000E+10  -6.044916995626507E-1   -7.576974220670355E-1   -1.166028923245253E-5    2.177461212949552E-5   -4.012461610971191E-6   -3.926551476080311E-5   -6.408805870689176E-1   -7.304187456048887E-1
 1.578000000000000E+10  -6.112666311745819E-1   -7.529680443526364E-1    2.607223103173706E-6    3.277178742965541E-6    7.343139720879317E-6   -7.544062367261623E-6   -6.452044731458275E-1   -7.274239072991188E-1
 1.579000000000000E+10  -6.182304581968558E-1   -7.488519738577663E-1    4.756730049333460E-6    6.539551755554095E-6    1.565560195561878E-5    3.026709656254195E-6   -6.489092029885076E-1   -7.240299394083268E-1
 1.580000000000000E+10  -6.247863234255951E-1   -7.455288671684793E-1    8.709264208242071E-6    5.584348876198155E-6    8.107328694673431E-6   -7.212757000247766E-6   -6.522141455826441E-1   -7.200952045343900E-1
 1.581000000000000E+10  -6.305428627990582E-1   -7.425255352721437E-1   -1.180698757394544E-5   -1.578840548382419E-6   -1.200497355892392E-6    4.300664130744915E-6   -6.554064365810649E-1   -7.155190313731722E-1
 1.582000000000000E+10  -6.352420450430531E-1   -7.396899398608618E-1   -6.455462667744758E-6    2.948668016105033E-6   -1.087530551543003E-5    9.046835409189308E-6   -6.589074345800047E-1   -7.103986754195247E-1
 1.583000000000000E+10  -6.389492786796545E-1   -7.367604920260157E-1    1.515565514562857E-5   -9.338495596080318E-6    6.215033197550919E-6   -7.681711680159603E-6   -6.628950087681709E-1   -7.049462067204951E-1
 1.584000000000000E+10  -6.420611743296382E-1   -7.333603142318393E-1    7.629606826664658E-6    1.167751218349873E-5    1.427313587355688E-5    6.002140985299552E-6   -6.676371485547048E-1   -6.995762924368658E-1
 1.585000000000000E+10  -6.448653253550450E-1   -7.292336342533191E-1    1.093984874711974E-6    1.674410359996862E-5   -1.075876549074161E-5   -3.337489142412820E-6   -6.728461951118774E-1   -6.945044020920248E-1
 1.586000000000000E+10  -6.479480287205405E-1   -7.243479652351071E-1   -6.045508107584840E-6   -1.031899404529836E-5   -4.450805004592273E-6   -3.469383632570142E-7   -6.784718339046784E-1   -6.899768610861482E-1
 1.587000000000000E+10  -6.516690684810497E-1   -7.189873915695060E-1   -1.666998279178360E-5    5.978755647540339E-8   -1.196438626798212E-5   -1.260199574275878E-7   -6.839751510771177E-1   -6.859252467994935E-1
 1.588000000000000E+10  -6.563428215738276E-1   -7.134873866365985E-1   -1.686913324968648E-5   -1.861396257193679E-6    4.651073580570329E-6   -7.779958293180263E-6   -6.893892177151213E-1   -6.822230881129737E-1
 1.589000000000000E+10  -6.620099628601964E-1   -7.080781252804033E-1    1.073544616579166E-5    2.901123381043538E-6   -1.887072019642807E-7   -1.071523382588446E-5   -6.941335990983550E-1   -6.786832377213131E-1
 1.590000000000000E+10  -6.682685333578746E-1   -7.029823602714941E-1    9.252125040148778E-6   -6.833058515223141E-6   -2.535711745171721E-6   -1.206324990982576E-5   -6.983561242528596E-1   -6.751171268191236E-1
