#  HZ   S   RI   R     50.00 
! Rohde & Schwarz Vector Network Analyzer 
! Rohde-Schwarz,ZNA43-4Port,1332450044101932,2.92
! Created: UTC 4/16/2025, 7:52:56 AM
! freq[Hz]                re:S11                  im:S11                  re:S21                  im:S21                  re:S12                  im:S12                  re:S22                  im:S22
 1.500000000000000E+10  -1.671934607533163E-1   -9.631667244316282E-1   -1.036866053079379E-5    1.088846805979474E-5    9.538519583366586E-6   -1.154046846613824E-5   -2.108365976990279E-1   -9.479408058204637E-1
 1.501000000000000E+10  -1.725878806958841E-1   -9.586634474433823E-1   -2.194179787416109E-5    1.310379557650539E-5   -2.666756498285366E-6    2.757084133609434E-7   -2.194425336032413E-1   -9.471329687179971E-1
 1.502000000000000E+10  -1.799620882141789E-1   -9.543087446746391E-1    1.204498737974537E-6   -1.981626761025462E-6    1.066763759515996E-5   -6.729695856173016E-7   -2.275665282620412E-1   -9.475632879956171E-1
 1.503000000000000E+10  -1.885026247310964E-1   -9.511376606275809E-1    2.319844899906644E-5   -1.189501770263137E-5   -1.850758576995751E-5   -9.007153631825327E-6   -2.344090907597189E-1   -9.489371702937845E-1
 1.504000000000000E+10  -1.978007715177004E-1   -9.494334077791302E-1    1.129451912289295E-5   -5.896793958635538E-6    9.882594008118195E-7   -8.269329376237803E-7   -2.398497605174844E-1   -9.504912765488759E-1
 1.505000000000000E+10  -2.073369867362115E-1   -9.494034481681775E-1   -9.521292007234696E-6    8.971943854851968E-6    1.267150879938174E-5   -2.144168026637962E-5   -2.442041475864417E-1   -9.513685774394365E-1
 1.506000000000000E+10  -2.161426532820624E-1   -9.508088198397818E-1    6.914702041676233E-7    2.010994501472133E-5    3.717918255070447E-7   -7.792284155767908E-6   -2.475131616517189E-1   -9.510263077873532E-1
 1.507000000000000E+10  -2.232981102856786E-1   -9.527068067420013E-1   -7.990850027700940E-6   -2.884279355853835E-6   -1.918029977501349E-5   -4.565995011350051E-6   -2.506263988489204E-1   -9.490953535730099E-1
 1.508000000000000E+10  -2.287160767268688E-1   -9.545481125732062E-1    1.828566828401353E-5    8.368829253194758E-6   -1.258627771796585E-5    1.365034578039338E-6   -2.541649770283634E-1   -9.457361115338339E-1
 1.509000000000000E+10  -2.322662123774457E-1   -9.553847545856731E-1   -2.641143751109716E-5   -1.293401276220147E-5    9.519160135130286E-6    2.918609379106535E-5   -2.588749957093948E-1   -9.414527603135214E-1
 1.510000000000000E+10  -2.348839770714878E-1   -9.546657127857741E-1   -6.897314637179641E-6    1.981387604007178E-5    1.500177555202025E-5   -2.184667537627943E-5   -2.646920795222659E-1   -9.369540622520072E-1
 1.511000000000000E+10  -2.373453782491932E-1   -9.522360063057049E-1    4.883885817887589E-6    2.156533200583194E-5   -7.120466016655433E-6   -2.230707924468163E-6   -2.720278390210124E-1   -9.329673008782171E-1
 1.512000000000000E+10  -2.405041716639675E-1   -9.483127272971794E-1   -5.820676063762437E-6   -3.631953660761590E-6   -5.994918199948673E-6    2.001409070358065E-5   -2.803074644524357E-1   -9.299759026982988E-1
 1.513000000000000E+10  -2.450383900717453E-1   -9.434040582904574E-1    9.063660896715819E-6   -8.584512773199943E-6   -1.258257145343842E-5   -1.233922184438326E-5   -2.889046417337890E-1   -9.282206406964137E-1
 1.514000000000000E+10  -2.512872345642648E-1   -9.387330985174719E-1    2.208473150015486E-6    7.475371688741772E-6   -3.443896594864387E-7    2.037815846157462E-5   -2.972944310899576E-1   -9.278465681939186E-1
 1.515000000000000E+10  -2.588372542657516E-1   -9.351510594492723E-1   -6.167719321614907E-6    1.115853483754638E-6    2.637845547935905E-5    5.774895132585133E-6   -3.046200758481075E-1   -9.284007090321887E-1
 1.516000000000000E+10  -2.675905443109424E-1   -9.327871626022954E-1    5.118625836189663E-6    1.504045381710312E-6   -9.954601011480707E-6   -2.248500155222271E-7   -3.104598896246717E-1   -9.292537583990333E-1
 1.517000000000000E+10  -2.765920188194968E-1   -9.318549194531788E-1   -7.457980958113418E-6    4.773177020742365E-6   -2.100065597722721E-6    1.609504247329557E-5   -3.148576551289808E-1   -9.298182992039339E-1
 1.518000000000000E+10  -2.854997257081147E-1   -9.322513181981553E-1    8.713636946601618E-7   -1.308369959547313E-5    1.137634625361441E-5    1.356737464252542E-5   -3.182677350569523E-1   -9.293120572470992E-1
 1.519000000000000E+10  -2.929100050307689E-1   -9.335606842720469E-1    3.050987993436434E-6   -1.329567245544250E-5   -3.923299377984454E-8   -6.991904916562995E-6   -3.211210533129908E-1   -9.274202526188750E-1
 1.520000000000000E+10  -2.987074547136933E-1   -9.348011677463535E-1   -1.716808596026421E-5    5.535956556150473E-6    6.141067159410988E-6   -4.029339650061478E-6   -3.243361842194674E-1   -9.240763444370089E-1
 1.521000000000000E+10  -3.023777376321147E-1   -9.353858628268783E-1   -7.832043146873019E-6    1.520531533843600E-5    1.820447994979251E-5    6.754422061224855E-6   -3.283055237833440E-1   -9.196728508902182E-1
 1.522000000000000E+10  -3.050713323385706E-1   -9.347196534456808E-1   -2.509156165238503E-6    6.081107842322235E-6    1.390570194506650E-5    2.315617211349752E-6   -3.335949674476883E-1   -9.148752971084864E-1
 1.523000000000000E+10  -3.073364588773990E-1   -9.323227741482577E-1    1.145377148741442E-5   -1.103853303562406E-5    1.651368876837066E-6    5.636790406485590E-6   -3.402191539034600E-1   -9.103629275297792E-1
 1.524000000000000E+10  -3.100768826425028E-1   -9.282614575673920E-1   -1.229053695974473E-6    1.017706707973101E-5    1.419615105506261E-5    1.157425213759364E-5   -3.480383103240067E-1   -9.067539883061856E-1
 1.525000000000000E+10  -3.142911738314232E-1   -9.231535115306418E-1    1.564500459655287E-6    5.768171001178903E-6    1.334778687879519E-5   -1.455020489246535E-5   -3.563519011298291E-1   -9.041565412059596E-1
 1.526000000000000E+10  -3.201939710636247E-1   -9.176321582718056E-1   -5.797442794264008E-6    1.151520615974390E-5    5.401948547596389E-6   -2.818185981616950E-6   -3.644956918087983E-1   -9.028961290810075E-1
 1.527000000000000E+10  -3.278025759401383E-1   -9.129331625632158E-1    8.575105175629770E-6   -3.162059186768802E-6    1.912710534262104E-5   -1.518809638381327E-5   -3.717778050629217E-1   -9.027561743118040E-1
 1.528000000000000E+10  -3.365491676392964E-1   -9.094336678281738E-1   -1.003041766020444E-5    1.733080595049417E-5    1.173884765749041E-5    8.194113566532939E-6   -3.778284409730018E-1   -9.032172930533858E-1
 1.529000000000000E+10  -3.458464587121414E-1   -9.073901039257605E-1   -5.143376357093432E-6    1.006222106938771E-5    4.192016955574536E-6   -6.693261222043075E-6   -3.824727754829738E-1   -9.034368552289460E-1
 1.530000000000000E+10  -3.548419862485132E-1   -9.065601645979848E-1   -1.903935574273110E-5    1.313714011554032E-5   -1.603379558461127E-5    8.198786149448521E-8   -3.860714735246870E-1   -9.026080554580427E-1
 1.531000000000000E+10  -3.631684794344296E-1   -9.074120907612333E-1    1.736266028672731E-6   -1.328830853299600E-5    2.315298056791733E-5   -3.905126908666124E-6   -3.892272933191139E-1   -9.006341634785596E-1
 1.532000000000000E+10  -3.694282311472225E-1   -9.084671420914584E-1    1.094192109617216E-5    6.174108493170587E-6   -1.163809557125039E-5   -4.488084863332633E-6   -3.923667203529956E-1   -8.970488776005572E-1
 1.533000000000000E+10  -3.737722243714182E-1   -9.095715695060017E-1   -5.640507966693713E-7    4.371559803349172E-6    1.607309592932626E-5    5.337259849816700E-6   -3.962577048611576E-1   -8.923216346466976E-1
 1.534000000000000E+10  -3.763796480966568E-1   -9.091452404331501E-1   -2.022555650319989E-5    7.880743415226671E-7    6.287359921663014E-6    2.117511931610008E-5   -4.013222648933631E-1   -8.870506222295302E-1
 1.535000000000000E+10  -3.782981468500599E-1   -9.070246751082134E-1   -1.725667861873905E-5    4.781636597059443E-7    5.671930288710202E-6   -6.660372856999945E-6   -4.076944124614946E-1   -8.819938435003233E-1
 1.536000000000000E+10  -3.803085646409125E-1   -9.030923435381816E-1    1.670130047057602E-5    1.064638482932743E-5    4.562789102850208E-6   -8.542016134361849E-6   -4.153450852387474E-1   -8.778161822771555E-1
 1.537000000000000E+10  -3.836308584009968E-1   -8.977718055243293E-1   -1.827804920906767E-5   -1.439058232458204E-5   -6.571114084145643E-6    1.171370743359879E-6   -4.235279994208375E-1   -8.747425850005550E-1
 1.538000000000000E+10  -3.886387458135103E-1   -8.917936948543381E-1    1.276357298872828E-5   -4.222898818160632E-6    1.796398126858813E-6   -9.599412352412592E-6   -4.319359780545548E-1   -8.728232295013909E-1
 1.539000000000000E+10  -3.954773489838815E-1   -8.863239217349863E-1   -1.663789262443368E-5   -1.294918903508695E-5   -3.983699271922976E-6   -1.629176435653172E-6   -4.395492051049936E-1   -8.721136192080052E-1
 1.540000000000000E+10  -4.038619719597447E-1   -8.818071851975190E-1   -8.865904719157867E-6    7.074205052854327E-6   -2.224126366845349E-6   -8.002412232624202E-7   -4.458650639838104E-1   -8.718846369457178E-1
 1.541000000000000E+10  -4.132987759690166E-1   -8.786176760236574E-1    3.616201719571518E-6    5.036663217283600E-6   -1.521324033994498E-5   -6.667493648498998E-6   -4.507958921956748E-1   -8.716665994588518E-1
 1.542000000000000E+10  -4.226960299279714E-1   -8.768465227543863E-1   -6.441270642345201E-6    1.942759521501026E-5    1.223852022263578E-5    1.113182073547092E-5   -4.545677198933221E-1   -8.707832362543647E-1
 1.543000000000000E+10  -4.313890027153607E-1   -8.765270467602495E-1    6.763549153817005E-6    2.439865711209345E-6    9.168919731538775E-6    1.672058017540586E-5   -4.575015290613736E-1   -8.686148383068094E-1
 1.544000000000000E+10  -4.380888667820763E-1   -8.768666551124850E-1    1.823434451143623E-5    1.700243904098244E-5   -2.005779110739784E-5    1.343706499659844E-5   -4.602686444540698E-1   -8.649639084511629E-1
 1.545000000000000E+10  -4.428536546826972E-1   -8.774927589335634E-1   -1.694651874868419E-5    7.435586868248216E-6   -8.177468661420645E-7    5.095137051102503E-6   -4.635594479091172E-1   -8.601566980492238E-1
 1.546000000000000E+10  -4.457151549042720E-1   -8.770584729357206E-1    1.765239578725439E-5   -3.790189252212916E-5    1.850586894167956E-5   -1.036145464787668E-5   -4.682983971543864E-1   -8.545909085772260E-1
 1.547000000000000E+10  -4.472768612825043E-1   -8.752359894398911E-1   -3.139139794120967E-6   -4.364542445943160E-7   -5.071956910500110E-6   -1.066824944197048E-5   -4.741126865096044E-1   -8.488341605809331E-1
 1.548000000000000E+10  -4.486677581069102E-1   -8.717828060249048E-1   -8.905782550179310E-6    7.872318160616578E-6    1.158183415845242E-5   -4.418037402128668E-6   -4.811147756071195E-1   -8.438015997218092E-1
 1.549000000000000E+10  -4.508775295924173E-1   -8.670018020521058E-1   -1.161692363175318E-5    9.311246008662354E-6    5.958764474154511E-6   -2.214417853638596E-5   -4.888146024377153E-1   -8.398648742598361E-1
 1.550000000000000E+10  -4.546197035693711E-1   -8.609398371954629E-1    1.326716824659734E-5    6.660929207948361E-7    1.255450489623866E-5    1.803008352104515E-5   -4.966764348900897E-1   -8.372072022852479E-1
 1.551000000000000E+10  -4.605877059703979E-1   -8.549149958724460E-1   -9.423400726373822E-6   -3.474066470339759E-6   -9.546507245312637E-6   -7.655182346849343E-6   -5.039454359363885E-1   -8.359575348145009E-1
 1.552000000000000E+10  -4.681846322762674E-1   -8.494525976145043E-1    1.619821606391325E-5   -2.246213322400341E-5   -9.316479707190051E-6   -2.177444218481188E-5   -5.100617609435375E-1   -8.356840473907815E-1
 1.553000000000000E+10  -4.771856293991480E-1   -8.450556597170190E-1   -5.150963155050379E-7    5.862824218347647E-7    2.708919542850091E-6    6.994530043628492E-6   -5.149247110935596E-1   -8.351354052206840E-1
 1.554000000000000E+10  -4.864874147763608E-1   -8.422212615473280E-1    9.256944370279660E-6   -2.112488117184132E-5   -1.571143864548888E-5   -1.080462758894948E-5   -5.185024412795735E-1   -8.340072411769262E-1
 1.555000000000000E+10  -4.952037045640678E-1   -8.407531250122550E-1    3.930367009577972E-6   -4.773454734217317E-7    1.871258670250900E-5   -2.444837206225616E-5   -5.212798045589999E-1   -8.317446030743356E-1
 1.556000000000000E+10  -5.026512480638733E-1   -8.402028098996914E-1   -2.952886472163922E-5    4.511228527806035E-6   -1.889542230599972E-5   -5.317156040843511E-6   -5.239240578859395E-1   -8.279105937714057E-1
 1.557000000000000E+10  -5.082289705969845E-1   -8.399958505304221E-1    2.143161103036227E-6   -1.034406412325589E-6   -9.318238648746579E-6   -2.208102315723571E-5   -5.271476629644145E-1   -8.227118963310430E-1
 1.558000000000000E+10  -5.117399686338725E-1   -8.393407074354610E-1    1.258940428069940E-5    1.191346706875238E-5    1.643850798205209E-5   -7.712051064957750E-6   -5.313031193730176E-1   -8.168099827001313E-1
 1.559000000000000E+10  -5.136776667411869E-1   -8.374598922479232E-1    1.066073842308918E-5   -6.360861953830998E-6    3.038611417681468E-6    2.460561683992039E-7   -5.367486937480767E-1   -8.106588890029924E-1
 1.560000000000000E+10  -5.149937641181032E-1   -8.343003488995555E-1    3.101440820220479E-5   -5.450546463347856E-6   -1.673916134121965E-5    6.441335463965015E-6   -5.434154323160870E-1   -8.050477458155918E-1
 1.561000000000000E+10  -5.168896260959374E-1   -8.296632331675411E-1    4.967162629510294E-6   -5.886947446817130E-6   -5.061731400098151E-6    4.029880293212414E-6   -5.511490834806689E-1   -8.004998331514257E-1
 1.562000000000000E+10  -5.200679426247853E-1   -8.240027100192558E-1   -1.372717091075850E-5    1.024197706713607E-6   -3.892917220298115E-6    3.311312611685655E-6   -5.590936214196613E-1   -7.971732149846680E-1
 1.563000000000000E+10  -5.247965645488450E-1   -8.180236442127706E-1   -9.008466804111443E-7   -1.231535729817486E-5   -6.124963327330166E-6    1.101225158481190E-6   -5.666130242976881E-1   -7.952348328884594E-1
 1.564000000000000E+10  -5.314074723264408E-1   -8.122674392643958E-1   -4.216142707428379E-6    6.288529919020937E-6    4.581895845416670E-5    1.104600457537509E-5   -5.728806559999625E-1   -7.941825310330797E-1
 1.565000000000000E+10  -5.393738617548980E-1   -8.075753837185670E-1    1.209792634817812E-5   -2.243743027439650E-6   -1.225944019076223E-5   -1.492328444743657E-5   -5.777659674911318E-1   -7.933784521380476E-1
 1.566000000000000E+10  -5.484368611758430E-1   -8.038708784614594E-1   -1.138653816581906E-5   -1.156833526215796E-5    2.751028292255827E-5    5.990763730791723E-6   -5.813568569299786E-1   -7.921335529833600E-1
 1.567000000000000E+10  -5.570862746200405E-1   -8.015937053363721E-1    5.230516295159504E-6    4.339466144880617E-6    2.083223798764777E-6    3.224424369974420E-5   -5.836604527751639E-1   -7.898174954615402E-1
 1.568000000000000E+10  -5.644550859802672E-1   -8.003478209021697E-1    7.438924637273101E-6    2.185213805965909E-5   -4.115447857762362E-6    7.228911066110091E-6   -5.857707494011627E-1   -7.861938743693987E-1
 1.569000000000000E+10  -5.701094601015100E-1   -7.995547569892562E-1   -1.412230139558822E-5    1.773103210310674E-5   -8.301430557352940E-6   -1.493081403625166E-5   -5.881404812314267E-1   -7.812019682165670E-1
 1.570000000000000E+10  -5.737986010918048E-1   -7.984874117330996E-1   -1.854428108951030E-5   -2.142115558113134E-5    4.774970179850875E-6   -1.081885288637087E-5   -5.915518044501819E-1   -7.751050931918791E-1
 1.571000000000000E+10  -5.758852145725178E-1   -7.964178533845646E-1    1.495868890865011E-5    7.730721206942358E-6    1.733957426095530E-5   -7.128764244646415E-6   -5.962676767653863E-1   -7.683979701712003E-1
 1.572000000000000E+10  -5.772223434335013E-1   -7.930806674980903E-1   -9.039969149975334E-6   -9.946933226515301E-6    5.930142457390784E-6   -1.750867800541243E-5   -6.024271006575417E-1   -7.619703634929375E-1
 1.573000000000000E+10  -5.786681345572299E-1   -7.882396066931535E-1   -2.711351364036522E-5    1.545972812580819E-5   -4.979290195556713E-6    9.934401948717749E-6   -6.096936085407292E-1   -7.563941917172291E-1
 1.574000000000000E+10  -5.810780243204692E-1   -7.823136102073018E-1   -7.807044950477497E-6   -3.183323505801445E-6    3.606796210213412E-6    3.563684829925332E-6   -6.175207532416791E-1   -7.521689402399691E-1
 1.575000000000000E+10  -5.851199051766797E-1   -7.758197417339671E-1   -6.789098051458964E-6   -1.949290964045221E-7    6.440813942218041E-6   -6.182680109405198E-6   -6.250172903850734E-1   -7.492961682367028E-1
 1.576000000000000E+10  -5.911572597746728E-1   -7.692060488743936E-1   -1.438461168058993E-5    9.084984233582825E-6    5.406679368290068E-6    1.000166800165291E-6   -6.317185116613326E-1   -7.473485460491472E-1
 1.577000000000000E+10  -5.987124926300212E-1   -7.633862875544493E-1   -1.307704150292939E-5   -5.641915482076652E-7    1.087351930267121E-5   -1.477848673673648E-5   -6.370758259690423E-1   -7.458388934296066E-1
 1.578000000000000E+10  -6.070874799611492E-1   -7.588126193397949E-1    2.610421690120127E-5    1.025084828617729E-5    7.410793653127234E-6   -2.129296112175290E-5   -6.409474594974350E-1   -7.441870035637611E-1
 1.579000000000000E+10  -6.155153981204152E-1   -7.555346612723003E-1    1.094936061141549E-5   -1.269536410472999E-5    1.599987578516703E-5    1.052933215585972E-5   -6.436197131217467E-1   -7.417021986867288E-1
 1.580000000000000E+10  -6.231413083010000E-1   -7.534116122170385E-1   -1.951486162639172E-5   -2.003647261086044E-5   -1.150036873579996E-5    1.137108908976864E-5   -6.456861010708972E-1   -7.378512874207112E-1
 1.581000000000000E+10  -6.291688071657938E-1   -7.519568685978585E-1    1.218818707255329E-5    2.070610000025854E-6   -2.721306414073376E-6    7.915692942069410E-6   -6.476101200619311E-1   -7.326592441518679E-1
 1.582000000000000E+10  -6.333434872268436E-1   -7.503409401575897E-1    1.704298067862722E-5    1.273736363912327E-5   -8.196230987137455E-6    1.933002259778909E-5   -6.502171386442149E-1   -7.263472045380626E-1
 1.583000000000000E+10  -6.357867170893946E-1   -7.482300198790935E-1    5.877115424335866E-6    2.175811917466810E-5    6.677260408212747E-6    1.486284022864643E-5   -6.539373457614280E-1   -7.194568377672320E-1
 1.584000000000000E+10  -6.374159269158310E-1   -7.448452145318417E-1   -1.025824110237984E-5    9.029557414120034E-6    1.153189132237559E-5   -1.621070505060198E-5   -6.591344976524863E-1   -7.128214715166059E-1
 1.585000000000000E+10  -6.386881948563650E-1   -7.401355854352127E-1    8.044353139231036E-6   -2.616608501423194E-6    3.607572261921067E-6    1.064723576631856E-5   -6.654656802987534E-1   -7.069734669497088E-1
 1.586000000000000E+10  -6.407789725685619E-1   -7.340209935836541E-1   -8.646544286488271E-6   -1.467251060451237E-5   -2.085310234195055E-5    2.956178875844967E-7   -6.724766960086556E-1   -7.022449497198680E-1
 1.587000000000000E+10  -6.442434508103462E-1   -7.272426990004336E-1    2.096223979859193E-6   -9.119376483575137E-6   -1.898626621458374E-5   -2.504475466870220E-5   -6.794616861234707E-1   -6.986956424640401E-1
 1.588000000000000E+10  -6.495131041532568E-1   -7.204102140925716E-1    6.965194239531448E-7   -9.088107237061335E-6    5.358088632026064E-6   -1.287287197299907E-5   -6.860069219747936E-1   -6.961040553704519E-1
 1.589000000000000E+10  -6.565852263608862E-1   -7.141060551006126E-1   -1.569776164206668E-5    7.093506689290567E-6    5.506351808352315E-6   -1.375026320724732E-6   -6.914069771740801E-1   -6.938839280683768E-1
 1.590000000000000E+10  -6.646092501155374E-1   -7.087517444098055E-1    6.875864694569890E-6   -1.089329594195014E-5   -3.462509718080368E-6   -5.838131295193731E-6   -6.954002818867706E-1   -6.915076182589506E-1
