#  HZ   S   RI   R     50.00 
! Rohde & Schwarz Vector Network Analyzer 
! Rohde-Schwarz,ZNA43-4Port,1332450044101932,2.92
! Created: UTC 4/16/2025, 7:49:31 AM
! freq[Hz]                re:S11                  im:S11                  re:S21                  im:S21                  re:S12                  im:S12                  re:S22                  im:S22
 1.500000000000000E+10  -1.699503547095007E-1   -9.616361928591596E-1   -4.637484605973464E-6   -1.705756904906180E-5    1.294747034394157E-6   -2.356397477262210E-5   -2.074547551199243E-1   -9.494727923314735E-1
 1.501000000000000E+10  -1.754848529173658E-1   -9.572340766271960E-1   -1.444128269202393E-6   -1.420538823559914E-5   -1.171766148549525E-7   -4.630097755333930E-6   -2.159166022723312E-1   -9.486655543185279E-1
 1.502000000000000E+10  -1.827890135813455E-1   -9.529723438704720E-1   -3.043981950455430E-6   -6.821950447115460E-6   -4.451705457552682E-6   -7.588869099927289E-6   -2.238746026773231E-1   -9.490238923169438E-1
 1.503000000000000E+10  -1.911946340795006E-1   -9.498903847245407E-1    1.907799539029522E-6   -7.759819808503743E-6    2.242109912555539E-6    2.495581431857306E-6   -2.307242745821199E-1   -9.503224401678363E-1
 1.504000000000000E+10  -2.003702334328506E-1   -9.482688558325885E-1   -3.453743575442531E-6   -1.693394912171606E-5    6.112075302696001E-6   -1.308557921976449E-5   -2.361607238476628E-1   -9.517358299245110E-1
 1.505000000000000E+10  -2.098162780706185E-1   -9.481219369349758E-1    4.410079712072373E-6    1.314791005128593E-5    6.288041081213186E-6   -4.068272226593355E-7   -2.405458260864694E-1   -9.524504054219148E-1
 1.506000000000000E+10  -2.184397591611681E-1   -9.494079535153881E-1   -2.611237706197333E-5   -1.386975726419855E-5    8.674683481977400E-6   -1.165915055768728E-5   -2.439470843909446E-1   -9.520922470573598E-1
 1.507000000000000E+10  -2.255018156236855E-1   -9.511546607132114E-1   -1.311608469055802E-5    2.524767538808009E-6    1.712010804517280E-5   -3.792803649013765E-5   -2.472948826546971E-1   -9.501600412102943E-1
 1.508000000000000E+10  -2.309533466526663E-1   -9.528009492527127E-1   -6.133800723255444E-6   -1.442585163343610E-5    1.524470596893587E-5   -2.945337134535977E-5   -2.509369430837765E-1   -9.468879033464048E-1
 1.509000000000000E+10  -2.346081075112524E-1   -9.535540099774791E-1    4.475579474548293E-6   -8.437670272424985E-6   -1.675414875148600E-6   -1.024072213369086E-6   -2.556912530801039E-1   -9.428287966669713E-1
 1.510000000000000E+10  -2.372905212964287E-1   -9.527892835834906E-1   -1.575488294526318E-5   -1.734094613649388E-5    1.877382740747038E-5   -1.324158944675017E-5   -2.615769583126177E-1   -9.385432987894972E-1
 1.511000000000000E+10  -2.399136565652576E-1   -9.504392427252835E-1    1.159332284884849E-5    3.847925339952002E-6   -1.307309363258680E-6   -1.703365323735299E-6   -2.688549887520728E-1   -9.346671713150815E-1
 1.512000000000000E+10  -2.431867562577556E-1   -9.465589835685534E-1    1.083613811428408E-5   -5.837719259510713E-6    1.515405707908164E-5   -8.117320073165487E-6   -2.770120529795568E-1   -9.317841745579581E-1
 1.513000000000000E+10  -2.477241780430652E-1   -9.418141422766331E-1   -8.050150207270464E-6   -4.295799897984844E-6   -1.714606438044472E-5   -8.491742528250565E-6   -2.854562605245862E-1   -9.300702541276756E-1
 1.514000000000000E+10  -2.540472800795606E-1   -9.372763722708956E-1   -2.273055642235463E-5    2.190548939261261E-5   -6.273585916264271E-6    1.062909629067255E-5   -2.937180553981158E-1   -9.296535814200039E-1
 1.515000000000000E+10  -2.615269555462116E-1   -9.337716077879018E-1   -1.576844994312769E-5    5.904664740631257E-6   -1.113850631867513E-5    8.116348233981561E-6   -3.009627952249825E-1   -9.300960960916881E-1
 1.516000000000000E+10  -2.701304920656981E-1   -9.313525367771108E-1    6.634721281623645E-6    2.130442831698106E-6   -1.581519261432524E-6   -9.714469849408988E-6   -3.068332044304320E-1   -9.308328581944787E-1
 1.517000000000000E+10  -2.789663862220812E-1   -9.303505824096380E-1   -1.696047967785963E-5   -1.784210210710800E-5    1.366716415596866E-5   -2.388899415313395E-6   -3.112259397640692E-1   -9.312954107398141E-1
 1.518000000000000E+10  -2.877302637270521E-1   -9.306344908941727E-1   -3.063003118850529E-6    2.617862012739819E-5    2.821539853108741E-6   -2.200376254463508E-5   -3.147554126837223E-1   -9.307890024342684E-1
 1.519000000000000E+10  -2.949991935230316E-1   -9.317829522734680E-1   -1.519792052338753E-5    3.846484108714029E-6   -2.233675736160457E-5    1.338970906006490E-5   -3.178275358940660E-1   -9.289080790000236E-1
 1.520000000000000E+10  -3.008173166425513E-1   -9.328463960691126E-1   -4.985135082146883E-6    1.005015586548760E-5   -3.383280057656378E-6   -2.172617042616971E-5   -3.211204454306026E-1   -9.255957974751361E-1
 1.521000000000000E+10  -3.046240139605020E-1   -9.333395732916274E-1    2.954061181856242E-6   -8.315338763264376E-6    7.205480243982758E-6   -2.484467409054347E-6   -3.251909336115229E-1   -9.213287332255892E-1
 1.522000000000000E+10  -3.073647665985346E-1   -9.325552228721231E-1    1.207729698840107E-5    3.281240429453721E-6    1.830826444737130E-5    3.922139703920885E-6   -3.305742309277275E-1   -9.167944467764275E-1
 1.523000000000000E+10  -3.098073696096083E-1   -9.301626470510318E-1    1.934655452689663E-6   -5.795152361251080E-6   -5.977912852483520E-7   -7.138235530588115E-6   -3.371319879568623E-1   -9.123793157880549E-1
 1.524000000000000E+10  -3.127023039931911E-1   -9.261808204420775E-1    9.868173609668248E-6   -1.269884891158736E-5   -2.400620258305399E-5   -2.438695739348857E-5   -3.448783474480150E-1   -9.088375025751557E-1
 1.525000000000000E+10  -3.169944373027672E-1   -9.212575814350537E-1    1.936435451878416E-5   -1.550516590798342E-5    8.824718927586082E-6   -5.787311350626913E-6   -3.530304596520001E-1   -9.063045121891808E-1
 1.526000000000000E+10  -3.228816739191416E-1   -9.158984989600508E-1    1.356153821192535E-5   -3.071819195074688E-6   -1.353547928191309E-6    9.151307109098810E-6   -3.610877407254645E-1   -9.049595746318543E-1
 1.527000000000000E+10  -3.304575493322924E-1   -9.111985599497490E-1   -1.515855004988506E-5   -2.495374395905835E-5   -5.009114963642563E-6    8.982336863579465E-6   -3.683456220170663E-1   -9.047544033584342E-1
 1.528000000000000E+10  -3.390469238481022E-1   -9.077375527246265E-1    3.518349163221142E-6   -3.576397174535583E-6   -6.940107526380698E-6    1.705692368100409E-5   -3.744158371896243E-1   -9.050883280385478E-1
 1.529000000000000E+10  -3.481585831410852E-1   -9.056756294683220E-1   -2.274050332377566E-5   -4.093307176209482E-6    6.920794077579704E-6   -2.254920317112950E-6   -3.791640154945368E-1   -9.051731787272920E-1
 1.530000000000000E+10  -3.569296872148346E-1   -9.047138493277260E-1    2.369429282990818E-6    2.228079470354190E-5   -9.647156736595783E-6    4.263179281687916E-6   -3.828866580308051E-1   -9.043439083516097E-1
 1.531000000000000E+10  -3.651299836999425E-1   -9.054076153279864E-1   -4.721262669410467E-6   -8.282835853837055E-6   -2.415806973147640E-5    9.528283627282035E-7   -3.862017204747832E-1   -9.023971563736586E-1
 1.532000000000000E+10  -3.713515313937414E-1   -9.063666496192654E-1   -4.111719103599009E-6    5.248996396728510E-6    1.406174975625725E-5    5.469643066576472E-6   -3.894763594295523E-1   -8.988577078841133E-1
 1.533000000000000E+10  -3.757041559890164E-1   -9.072699235881428E-1   -3.523899797034891E-6   -1.017855334741588E-5    1.948971461753708E-5   -9.483552959087583E-6   -3.935302918825501E-1   -8.943480182151888E-1
 1.534000000000000E+10  -3.784303533329164E-1   -9.067644000888555E-1   -4.558082919054695E-6    7.308467889678969E-6    3.450350896092317E-6   -1.001015156392656E-5   -3.986719195948554E-1   -8.892320145110619E-1
 1.535000000000000E+10  -3.803904449684497E-1   -9.046915740329240E-1    8.814435916219000E-6    9.221684387836566E-7   -9.142370860895939E-6   -6.309982981814666E-6   -4.050116210915038E-1   -8.842847651130666E-1
 1.536000000000000E+10  -3.826603438707515E-1   -9.008824720756894E-1   -2.481610328220270E-5   -6.204928172485377E-6   -2.326984286990300E-6   -1.298188706552892E-5   -4.125560810717943E-1   -8.801534028749436E-1
 1.537000000000000E+10  -3.860412541930754E-1   -8.956294114733286E-1   -7.365945122904784E-6    1.130738587490205E-5   -9.329678833073082E-6    1.380428744539986E-5   -4.206470449762720E-1   -8.771284433671255E-1
 1.538000000000000E+10  -3.910367260024623E-1   -8.897928769489583E-1   -4.412123487184580E-6    1.917028586618710E-6   -1.056244869948429E-6    2.834454761011777E-6   -4.288811312343316E-1   -8.751369071378053E-1
 1.539000000000000E+10  -3.979225251054169E-1   -8.844726136732103E-1    2.773474748608219E-6    8.890280896339625E-6   -3.808433065351853E-6    1.988905627558793E-5   -4.363961691585031E-1   -8.742911966451746E-1
 1.540000000000000E+10  -4.061301990448307E-1   -8.799843812404432E-1   -1.463751235550871E-5    7.230914537132992E-6   -1.499826080243992E-5    2.494276325750424E-5   -4.426676366131719E-1   -8.739919277519429E-1
 1.541000000000000E+10  -4.153309066584911E-1   -8.767893425793937E-1   -6.521547152667883E-6   -4.048023686194667E-6    1.620102772154474E-5   -1.681310366395273E-5   -4.476783891233183E-1   -8.735498125408470E-1
 1.542000000000000E+10  -4.245938629331329E-1   -8.749134061916413E-1    1.353845908765244E-5   -2.288998004917343E-5    1.022527751065437E-5   -5.696354036089343E-6   -4.516589172039677E-1   -8.725440865171995E-1
 1.543000000000000E+10  -4.331339673946803E-1   -8.745030065988979E-1    1.148550516251402E-5    3.445595038236347E-6    2.594964352370157E-6    1.234081986208050E-5   -4.547564889552449E-1   -8.703446127282500E-1
 1.544000000000000E+10  -4.397769222659200E-1   -8.745955171205522E-1    3.347937427536964E-6    1.429433195188916E-5    1.763431229436313E-5    3.175749037230734E-6   -4.576825303554931E-1   -8.667713269574676E-1
 1.545000000000000E+10  -4.445413387248502E-1   -8.750510059734684E-1    7.946450485795592E-6    6.188139949995969E-6   -1.139631665993605E-6    6.375011693760153E-6   -4.611205886089662E-1   -8.620459919266797E-1
 1.546000000000000E+10  -4.475588010718610E-1   -8.746100627360536E-1    1.312255676949910E-6    1.033606797520903E-5   -3.182457501859842E-5   -3.341045669786436E-5   -4.659446458788745E-1   -8.567351112456196E-1
 1.547000000000000E+10  -4.492184358908785E-1   -8.727195405006900E-1   -5.427170415052000E-6    1.549358045242457E-5   -1.795776509589091E-5   -4.220999971412298E-6   -4.717321204937085E-1   -8.511902803184477E-1
 1.548000000000000E+10  -4.506792064230354E-1   -8.693052695242715E-1    2.633697431722559E-5    9.322913218385581E-6    1.184646707060363E-5    1.430725951377666E-6   -4.785778179079903E-1   -8.462432040041368E-1
 1.549000000000000E+10  -4.530404192640742E-1   -8.645929080306638E-1   -6.850866525681918E-6    7.717360193020786E-6   -2.271398073986845E-5   -8.497086729998116E-6   -4.861342643448295E-1   -8.423918722278957E-1
 1.550000000000000E+10  -4.568204563413039E-1   -8.587045951119613E-1   -5.486000686067908E-6   -2.488134055094838E-6   -1.215315835847964E-5    1.801423461690369E-5   -4.938246111523816E-1   -8.397823897972708E-1
 1.551000000000000E+10  -4.627506999472239E-1   -8.527536609259049E-1   -1.033803942316542E-6    1.007280046094872E-5    1.428254046718907E-5    7.442718380388958E-6   -5.010455997166625E-1   -8.384951853368683E-1
 1.552000000000000E+10  -4.702737741568553E-1   -8.473911368466974E-1    3.713034859993437E-5   -5.218901125951533E-7    1.301092636299566E-5   -1.093916641983431E-5   -5.071219273134270E-1   -8.379659315926842E-1
 1.553000000000000E+10  -4.790662031238493E-1   -8.430252633695525E-1    4.613082439700964E-7    6.815832323797361E-6   -1.261624180366754E-5   -5.163065076296643E-6   -5.119634341857514E-1   -8.373263125242029E-1
 1.554000000000000E+10  -4.881634455547216E-1   -8.401307719118853E-1    1.839665121465470E-5   -2.834326490740963E-6    6.397687942849693E-6   -1.105624363796365E-5   -5.157300852868232E-1   -8.360838416700176E-1
 1.555000000000000E+10  -4.967031637782287E-1   -8.385798882900222E-1    5.112893887127523E-6    9.171913548863681E-7    4.659876521673937E-6   -2.970666511241060E-6   -5.186030225345414E-1   -8.337331856422351E-1
 1.556000000000000E+10  -5.041199382699316E-1   -8.378978337093600E-1    1.675604812992524E-6   -1.092649760012087E-5   -5.328830552691079E-6    1.561343375022494E-5   -5.214912863766676E-1   -8.299643427173622E-1
 1.557000000000000E+10  -5.097185908204969E-1   -8.375174891894472E-1    3.443223330228270E-7   -1.638943176133058E-6   -2.644680628823556E-6    1.184868859796640E-5   -5.248240869057458E-1   -8.248394755719650E-1
 1.558000000000000E+10  -5.132048708412326E-1   -8.367238224713528E-1    8.149942919757776E-7   -1.467111031189338E-5    7.252980473282644E-7   -1.038881100768058E-6   -5.290524141815105E-1   -8.191021590246530E-1
 1.559000000000000E+10  -5.153548038397449E-1   -8.348226994613839E-1   -1.861140525151499E-5    9.458859245330638E-6    1.528688064912714E-5    1.359991304187294E-5   -5.345110988478861E-1   -8.130703094574523E-1
 1.560000000000000E+10  -5.168373453745305E-1   -8.317155169537130E-1    1.586433809379070E-6    1.699784885578696E-5   -1.204117746087356E-5    8.469045675762378E-6   -5.410916886248398E-1   -8.075746231107189E-1
 1.561000000000000E+10  -5.188941296198473E-1   -8.271735654470515E-1   -5.529801861960491E-7   -3.072924815197538E-6   -2.288417797973152E-5    8.171910037431056E-6   -5.487031864011059E-1   -8.031446813423195E-1
 1.562000000000000E+10  -5.221080605335724E-1   -8.217024032926373E-1   -3.015474653998528E-5   -2.070515434854787E-6   -1.691281320144347E-5    4.785835217677703E-6   -5.564957010707332E-1   -7.998453526375868E-1
 1.563000000000000E+10  -5.269214949817648E-1   -8.157563655898084E-1   -1.077004661134922E-5   -1.470419138387926E-5   -2.348448551714454E-6   -2.496408686213041E-5   -5.639425072070753E-1   -7.978761780009983E-1
 1.564000000000000E+10  -5.332853494628699E-1   -8.102019700714618E-1   -1.081566324812548E-5   -8.573436362658459E-6   -3.750738196363172E-6   -9.081781773588834E-6   -5.700937996624652E-1   -7.967200157202102E-1
 1.565000000000000E+10  -5.410821887162549E-1   -8.055703963564217E-1    6.413279911706812E-6   -9.969974681915716E-7   -2.717456613043547E-5   -2.275956253733017E-5   -5.749930589126935E-1   -7.957934792792526E-1
 1.566000000000000E+10  -5.499326034555790E-1   -8.017831185076402E-1    1.816580473137094E-5    1.157113572180646E-5   -1.500435826578627E-5   -7.983967967303382E-6   -5.786213227808282E-1   -7.944484336558757E-1
 1.567000000000000E+10  -5.584416339646893E-1   -7.994353722752841E-1    6.329911856014523E-7    1.166928410214594E-5   -1.257819991267383E-5   -1.504311306372838E-5   -5.810512036026749E-1   -7.919861694337150E-1
 1.568000000000000E+10  -5.656913957448368E-1   -7.980291595564515E-1    8.247361594022310E-8   -1.775585317503973E-5   -2.104596366252450E-5   -6.428506803495107E-6   -5.832876082957397E-1   -7.884488221793641E-1
 1.569000000000000E+10  -5.713320566947929E-1   -7.970630185534110E-1   -3.183783300118878E-6   -4.347583648813502E-6    2.480098750662324E-5    8.891287596719245E-6   -5.857779079735327E-1   -7.835156451915410E-1
 1.570000000000000E+10  -5.751128727954216E-1   -7.958396479694122E-1    1.225253776347715E-7    7.969086561420163E-6   -1.697785327339027E-5   -3.731872153533624E-6   -5.891786883219435E-1   -7.775716410926981E-1
 1.571000000000000E+10  -5.773774975912168E-1   -7.937075435371773E-1    1.487630327805048E-5    1.137499571589004E-5   -1.026931142107869E-5    4.070793122255687E-5   -5.939848495510300E-1   -7.710137473521981E-1
 1.572000000000000E+10  -5.788299723510087E-1   -7.904005124063586E-1   -1.659838463165342E-5    2.741501148440711E-5    2.917326188816484E-6    8.384790344634656E-6   -6.000567042683473E-1   -7.647709079334796E-1
 1.573000000000000E+10  -5.805012335308616E-1   -7.855772838360667E-1   -2.232729251087464E-6   -4.761099319455275E-6    9.684791245688646E-7    7.286650664514661E-6   -6.072298983130160E-1   -7.592675721991042E-1
 1.574000000000000E+10  -5.830411072962161E-1   -7.798334713070550E-1    3.704855514067318E-5    7.260290436665590E-7    1.734975165835391E-5    2.306781628691516E-6   -6.149978638173963E-1   -7.550330639487466E-1
 1.575000000000000E+10  -5.870178421844227E-1   -7.734589867605257E-1   -2.599017833292557E-6   -3.856217475344302E-6    8.598496643954413E-6   -1.291552420788651E-5   -6.223492278825802E-1   -7.520858681902246E-1
 1.576000000000000E+10  -5.929688890091751E-1   -7.669290453575537E-1    8.874146309947486E-6    1.117168621531551E-5    5.124388272689142E-7   -7.804753981755943E-6   -6.289647585978358E-1   -7.500478190548056E-1
 1.577000000000000E+10  -6.004051119618398E-1   -7.612137652249586E-1    1.166008737972026E-6   -1.712224892382781E-6    9.857424947359027E-6    5.258381397236159E-6   -6.343428221874834E-1   -7.484180796141868E-1
 1.578000000000000E+10  -6.086493218191286E-1   -7.565657645005276E-1   -1.881265546305215E-5    1.092089288113406E-5   -4.070428786505723E-7    1.132639832894149E-6   -6.382646843243011E-1   -7.466854804010269E-1
 1.579000000000000E+10  -6.168795481831839E-1   -7.531477407642819E-1   -2.198703692092454E-5   -1.233215478179393E-6   -8.534535458043654E-6    5.611644624800921E-6   -6.410644812445319E-1   -7.441419218506177E-1
 1.580000000000000E+10  -6.243870334017513E-1   -7.509636342431038E-1   -1.116645844996131E-5    1.680811851256625E-5    6.484439018399019E-6    3.982017702680473E-6   -6.432072728231354E-1   -7.403548861046516E-1
 1.581000000000000E+10  -6.304138875784224E-1   -7.492207729250349E-1   -2.398236823867768E-5    6.862290597542661E-6    2.054103803568474E-5    1.361962478381332E-5   -6.452990838627015E-1   -7.352238580060151E-1
 1.582000000000000E+10  -6.345938866047538E-1   -7.475476359107011E-1   -7.124424662607569E-6   -7.814339397982658E-6   -4.454987032133625E-6    1.108869569683602E-5   -6.479651015987883E-1   -7.290888579061409E-1
 1.583000000000000E+10  -6.372024452217556E-1   -7.452687876637334E-1   -1.407489053410887E-6   -3.565975301302841E-6   -2.470615349450405E-5   -5.938693208914466E-6   -6.518039100422641E-1   -7.224037796193755E-1
 1.584000000000000E+10  -6.389843329645806E-1   -7.418063583466643E-1    1.407210666088390E-5   -1.051365374781459E-5    7.958023890859518E-6    4.115682176872081E-7   -6.569561736837598E-1   -7.158973547269648E-1
 1.585000000000000E+10  -6.404656753517233E-1   -7.371738990900908E-1    1.251077719099399E-5   -1.287604918521692E-5    1.721005895534292E-5   -1.369426831830702E-5   -6.632054432536089E-1   -7.100914205474925E-1
 1.586000000000000E+10  -6.425884613719177E-1   -7.311716274728086E-1   -1.428080365109539E-5   -8.288988559081158E-6    1.313400104580593E-5   -1.118415064549541E-5   -6.701231484369463E-1   -7.053948284567577E-1
 1.587000000000000E+10  -6.461203049958222E-1   -7.245391043274404E-1    5.065000798365221E-7    5.359746777778745E-6    1.628078572988857E-5   -8.506518365128138E-6   -6.770537511949500E-1   -7.017472793817396E-1
 1.588000000000000E+10  -6.513118998614335E-1   -7.178434947224538E-1    3.814341024661030E-6    1.928631959506513E-6    8.408452232303559E-6   -1.818336675564067E-5   -6.835158197194037E-1   -6.990090771981173E-1
 1.589000000000000E+10  -6.582762028111391E-1   -7.116519444567931E-1    1.618495677938644E-6    8.947324342815430E-6   -1.487154326476325E-5   -1.174585552213648E-6   -6.888608668093306E-1   -6.966656158068079E-1
 1.590000000000000E+10  -6.660678111758193E-1   -7.062990895331926E-1    1.795191746297769E-5   -1.462027548715053E-5    2.694666194783088E-6    1.644215806933466E-5   -6.929532787363940E-1   -6.942887387281930E-1
