#  HZ   S   RI   R     50.00 
! Rohde & Schwarz Vector Network Analyzer 
! Rohde-Schwarz,ZNA43-4Port,1332450044101932,2.92
! Created: UTC 4/16/2025, 7:45:22 AM
! freq[Hz]                re:S11                  im:S11                  re:S21                  im:S21                  re:S12                  im:S12                  re:S22                  im:S22
 1.500000000000000E+10  -1.723738473560870E-1   -9.618649992847658E-1   -4.938305729575651E-6    8.758948219582009E-6   -9.757209959072409E-6   -1.966119572313654E-6   -2.093966105853376E-1   -9.471108239955227E-1
 1.501000000000000E+10  -1.779706433972810E-1   -9.577133827986938E-1    1.848556903262991E-5   -5.739486541778013E-6   -1.755999850343397E-5    1.405529706040093E-5   -2.176265218104958E-1   -9.462558611281813E-1
 1.502000000000000E+10  -1.852246338015640E-1   -9.536753072075395E-1    5.989978132805336E-6    3.894924442610253E-6   -1.144026865586767E-5   -6.507660232206586E-6   -2.254285042801429E-1   -9.465223696838839E-1
 1.503000000000000E+10  -1.935579141581480E-1   -9.507681127195858E-1   -1.807090856842351E-5   -1.065143986619867E-5    2.851226664240378E-5   -6.907718813169480E-6   -2.321959749684214E-1   -9.475806375146596E-1
 1.504000000000000E+10  -2.025073166481880E-1   -9.491662397205232E-1   -2.452042023722169E-6   -1.487916587651893E-5    1.695261550698689E-5    1.584944443732241E-5   -2.376186217902056E-1   -9.487410390348546E-1
 1.505000000000000E+10  -2.116976704050260E-1   -9.489721878213561E-1    1.592507700489308E-5    1.456461693007248E-5   -7.943027659332549E-6   -9.090572662341729E-6   -2.421189118112686E-1   -9.493394875310374E-1
 1.506000000000000E+10  -2.201325669363211E-1   -9.500482169032869E-1   -8.914001266127519E-6   -9.459854732425222E-6   -4.110619089207002E-6    1.408409473208680E-6   -2.457117870543552E-1   -9.489008498707211E-1
 1.507000000000000E+10  -2.271328709305403E-1   -9.515503851252705E-1    5.125734055132501E-6    6.765171558335105E-6   -6.794298864083897E-6    5.244116165825383E-6   -2.492429982091922E-1   -9.469757856452845E-1
 1.508000000000000E+10  -2.324958094078522E-1   -9.530557274868219E-1   -1.629101765307439E-5   -1.381506276210162E-5   -5.647240830154030E-6    3.508095836578373E-6   -2.529871284428097E-1   -9.439203166726724E-1
 1.509000000000000E+10  -2.362928748881896E-1   -9.535811924908889E-1   -1.031419992426356E-5    4.387810848313703E-6    7.491133722350525E-6    5.832918258077404E-7   -2.578324904726989E-1   -9.399675864409128E-1
 1.510000000000000E+10  -2.391798529868309E-1   -9.527194506352090E-1    9.716032181304940E-6   -7.688979755199378E-6   -1.786411633149453E-5   -1.093277873544579E-5   -2.637232220995453E-1   -9.358815865972194E-1
 1.511000000000000E+10  -2.420478743197397E-1   -9.504431482329699E-1   -6.981242491303773E-6   -1.347687138470538E-6    2.117760593706039E-6   -9.197516579548103E-6   -2.708390673843106E-1   -9.321371403525470E-1
 1.512000000000000E+10  -2.455126875716095E-1   -9.467366353485663E-1   -4.863527213883551E-6    3.370594403277555E-6   -4.373447032667933E-6   -1.386864955262865E-5   -2.787817949703234E-1   -9.293378441175711E-1
 1.513000000000000E+10  -2.501515838293280E-1   -9.421330560800287E-1   -7.145164870696265E-6    1.643299293090524E-5    3.074924993339694E-6   -1.171627929679647E-5   -2.870450874530657E-1   -9.275897290095519E-1
 1.514000000000000E+10  -2.564356629136803E-1   -9.377807630390085E-1   -1.187832447888506E-5   -1.800863123786515E-5    1.155828424639056E-5    2.435768114587816E-5   -2.951246368364349E-1   -9.269647906854075E-1
 1.515000000000000E+10  -2.637887985350524E-1   -9.344419660336925E-1    1.511870921510552E-5    7.802126356215610E-6    4.828552628291441E-7   -3.298977405478422E-6   -3.023106850141815E-1   -9.273471186198258E-1
 1.516000000000000E+10  -2.722567386346800E-1   -9.321109930684732E-1    1.232253323246734E-5   -2.512467113992021E-6    7.454047454095232E-6    6.001371511391258E-6   -3.081501450804525E-1   -9.278233313036939E-1
 1.517000000000000E+10  -2.807900812620859E-1   -9.310719597488563E-1    8.383836478704962E-6   -1.768581962823584E-5   -3.065971510467177E-5   -9.464032513953862E-6   -3.126330368703561E-1   -9.280395701811314E-1
 1.518000000000000E+10  -2.894094652028608E-1   -9.312358377556803E-1   -4.559298419855326E-6   -6.072673820237614E-6   -8.315590191082429E-9   -2.150428681012675E-6   -3.163742196013242E-1   -9.274327575433622E-1
 1.519000000000000E+10  -2.965862920015009E-1   -9.321317737510044E-1   -2.881810375530210E-6    1.070011763049712E-5   -3.275729401012529E-5   -9.359356884141613E-6   -3.196869719231853E-1   -9.255677559707652E-1
 1.520000000000000E+10  -3.023201408225524E-1   -9.329167505292792E-1   -2.689579894521240E-5    6.859874073787682E-6    6.422568383275470E-6   -4.915996149667243E-6   -3.232133158608754E-1   -9.223555439358568E-1
 1.521000000000000E+10  -3.062542223707391E-1   -9.332954558777853E-1   -5.662115648282694E-6    5.891585463703740E-6   -1.003105905728130E-5   -8.698145752028082E-6   -3.273779974726639E-1   -9.183046405469976E-1
 1.522000000000000E+10  -3.091932978737478E-1   -9.324317598968290E-1    1.398805196553484E-5   -2.144479155186763E-5   -5.076959058315391E-6   -6.587416201059305E-6   -3.327471506471604E-1   -9.138864225889599E-1
 1.523000000000000E+10  -3.119130643967285E-1   -9.300146194214185E-1    1.290186178124676E-5   -1.495645071631723E-5    3.073423760408667E-6    1.368455075824296E-6   -3.392164720711450E-1   -9.096904319754737E-1
 1.524000000000000E+10  -3.149480770556136E-1   -9.261180217909142E-1    1.365637168105186E-5   -1.023220513792465E-5   -8.971392780796769E-7    9.138080455858729E-6   -3.467189048372936E-1   -9.062651322959117E-1
 1.525000000000000E+10  -3.193752770261770E-1   -9.214072751688394E-1   -9.043429702718860E-6    2.340168250140640E-5   -2.590562144682927E-7   -1.852434069822278E-5   -3.546187012511274E-1   -9.037790149524499E-1
 1.526000000000000E+10  -3.253316040824593E-1   -9.161680894186658E-1    2.445605542113935E-6   -6.618820792902562E-6    2.960123899968564E-6   -7.359864502904595E-6   -3.624500462108128E-1   -9.023304165291891E-1
 1.527000000000000E+10  -3.328234180286943E-1   -9.116883421906586E-1    6.147968047337207E-6   -7.302735705312058E-6   -1.455721056335643E-5    4.745351662144024E-6   -3.695690127888447E-1   -9.019322127447206E-1
 1.528000000000000E+10  -3.412546243295037E-1   -9.082996860896412E-1   -6.546837871877372E-6    2.583795328000522E-6    1.051937223885618E-5    2.011286634266863E-5   -3.755372856336979E-1   -9.019998740957291E-1
 1.529000000000000E+10  -3.501144158533812E-1   -9.062084934133221E-1   -3.375608292814149E-6    3.944422342415883E-6   -5.074534197280656E-6    4.669677082391608E-7   -3.803454986514402E-1   -9.018547645140781E-1
 1.530000000000000E+10  -3.587324022370039E-1   -9.051809917648653E-1   -2.492606748800251E-6   -1.605442410599836E-6   -2.688611900425243E-5    7.219184778306695E-6   -3.842493844943339E-1   -9.008830252500868E-1
 1.531000000000000E+10  -3.667486272311024E-1   -9.056693045349062E-1    2.076041616389712E-6   -9.132419600513061E-6   -1.136780191169701E-5    9.575843286073233E-6   -3.876972965404262E-1   -8.988564826094111E-1
 1.532000000000000E+10  -3.729434581219837E-1   -9.063153374068881E-1   -1.520297223626175E-5   -2.596899948993348E-6   -4.537774406919277E-6    3.125094690180969E-6   -3.911544827046107E-1   -8.954014225730884E-1
 1.533000000000000E+10  -3.773382384501340E-1   -9.071259315756072E-1   -3.277455805455612E-6   -6.575140837049980E-6   -1.301210057916633E-5   -5.636134687942419E-6   -3.953550707573713E-1   -8.910096370863904E-1
 1.534000000000000E+10  -3.802858674088773E-1   -9.064441745476665E-1   -4.484331402599640E-6   -6.245892682988653E-6   -2.360919216430776E-6    1.527450421195580E-5   -4.005678667483679E-1   -8.861293802655243E-1
 1.535000000000000E+10  -3.825345531627575E-1   -9.043138402738634E-1   -4.709621474383106E-6   -7.571856553805775E-6   -3.584716785289356E-6    2.303012903903628E-5   -4.068402547570900E-1   -8.813354032273729E-1
 1.536000000000000E+10  -3.849600444278150E-1   -9.005626359136593E-1   -2.271480492796831E-5   -6.131416683786889E-6    2.140145122395770E-5    1.175997262938787E-5   -4.141841337298172E-1   -8.773587671361219E-1
 1.537000000000000E+10  -3.885744940523421E-1   -8.954681649741062E-1   -1.329553721000946E-5    2.041548554189469E-5    1.747716668488234E-5   -1.165348555917652E-5   -4.220315388191624E-1   -8.743728777248575E-1
 1.538000000000000E+10  -3.936617029321933E-1   -8.898708081355570E-1   -1.707992883716705E-5    3.020887307096072E-5    1.243068451345292E-6    2.062181982810887E-5   -4.300526127758703E-1   -8.723422214229369E-1
 1.539000000000000E+10  -4.004824508221796E-1   -8.847562272033550E-1    2.394920334381691E-6   -2.339587165511696E-5   -1.038277305373854E-5    8.380036697050364E-6   -4.373423524403139E-1   -8.713559226000809E-1
 1.540000000000000E+10  -4.085650628970874E-1   -8.803825137342651E-1    9.915876356910414E-6   -6.341922225840269E-6    1.081938165524560E-6   -9.992399269757476E-6   -4.435336899532329E-1   -8.709332952500469E-1
 1.541000000000000E+10  -4.175545822526582E-1   -8.771989305260575E-1    4.743576991761119E-6   -5.997459856485701E-7   -2.024161566683431E-5   -2.508882950311023E-6   -4.485489523447005E-1   -8.703370118762349E-1
 1.542000000000000E+10  -4.265640511398631E-1   -8.752047577377617E-1    6.970648936000657E-6   -1.505194811076915E-5    2.567713640483555E-5    1.611207909536653E-6   -4.525689016161093E-1   -8.691289194231213E-1
 1.543000000000000E+10  -4.349308461097409E-1   -8.746412652839218E-1    1.682499891660045E-5    1.414697493185875E-5   -1.116474961739915E-5   -3.712812148851753E-6   -4.557848133650269E-1   -8.668814212901068E-1
 1.544000000000000E+10  -4.415392160734020E-1   -8.745862283472163E-1   -2.030887693613234E-5    6.962608898163046E-6    6.555050315070185E-6    9.762506454114788E-6   -4.588699634693318E-1   -8.633062230426994E-1
 1.545000000000000E+10  -4.463237354086967E-1   -8.747162659830998E-1    1.767447599775284E-5    6.618195216015008E-6    8.442339488595000E-6    6.435031244185162E-6   -4.624534676115679E-1   -8.586382801619438E-1
 1.546000000000000E+10  -4.494581317963971E-1   -8.741958258857713E-1    3.673982937919494E-5    7.328975599108791E-6   -1.195672390682911E-5    1.406586726142324E-6   -4.672289142161804E-1   -8.534551258770959E-1
 1.547000000000000E+10  -4.513533924520993E-1   -8.722703044004673E-1   -2.205480613742386E-5   -1.475124940021233E-5    1.041964774574279E-5    2.313589432579778E-6   -4.730248815846209E-1   -8.481132257887192E-1
 1.548000000000000E+10  -4.530894727854907E-1   -8.688657044249034E-1    1.324345972684552E-5    3.064300293913371E-6   -1.498418017187516E-5    3.069116711600833E-6   -4.797524038260050E-1   -8.433403901708504E-1
 1.549000000000000E+10  -4.556152237336104E-1   -8.642745030863901E-1   -1.883432246581018E-5   -3.467096383388341E-6   -2.839204050218725E-5   -1.104138698591226E-5   -4.871177537685288E-1   -8.395198187764759E-1
 1.550000000000000E+10  -4.595393323133375E-1   -8.585893705476340E-1   -6.960856727541246E-6    6.965142435466696E-6   -1.368173372764130E-5    1.054026526221074E-5   -4.946349143433231E-1   -8.368617730907192E-1
 1.551000000000000E+10  -4.653979475773493E-1   -8.527840434570965E-1   -8.765274937815666E-6    1.282850733590426E-6   -2.319929314883915E-5   -8.402771872100424E-6   -5.016589177346203E-1   -8.354146546483755E-1
 1.552000000000000E+10  -4.727643222896866E-1   -8.476132775119900E-1   -7.208826078567412E-6   -1.052745065263200E-6   -9.233942985812839E-6   -7.364439794402255E-6   -5.076754052280833E-1   -8.346669130122756E-1
 1.553000000000000E+10  -4.813235651670157E-1   -8.432661991145636E-1    1.231560126593283E-6    3.736807961931065E-6   -1.464888624878207E-5   -1.753508328749908E-5   -5.125381195942023E-1   -8.338571194274725E-1
 1.554000000000000E+10  -4.902182783837116E-1   -8.402760159327075E-1   -1.901281693441893E-5    3.975712992789247E-6   -1.639828700380937E-5   -1.178058605666803E-5   -5.163560084333553E-1   -8.324512028965155E-1
 1.555000000000000E+10  -4.986123673153076E-1   -8.385478109714171E-1    1.189051792371952E-5   -1.431923254350640E-5   -6.607747811739227E-6    1.123424250566530E-5   -5.194620897383930E-1   -8.300373053330002E-1
 1.556000000000000E+10  -5.058770265022995E-1   -8.376336542085833E-1    2.950960392915917E-5   -1.990426969207124E-5   -6.472969790354861E-6   -2.188007085249860E-5   -5.224121007042565E-1   -8.262825584215572E-1
 1.557000000000000E+10  -5.115055161542760E-1   -8.369947309822831E-1   -1.154677827947009E-5   -4.831108130148821E-6    1.665907802017411E-5   -6.513646428437007E-6   -5.258161680923927E-1   -8.212976628653872E-1
 1.558000000000000E+10  -5.151711799342927E-1   -8.361168883891020E-1    4.070931037227113E-7   -1.453419565274175E-5    8.262124992995294E-7    1.556643496874626E-5   -5.301379445532700E-1   -8.157502828928630E-1
 1.559000000000000E+10  -5.175273300635304E-1   -8.341491192776090E-1   -3.805894388416488E-6   -1.664355772126212E-5   -3.102842459861796E-5   -1.732885803441010E-6   -5.355068593157303E-1   -8.098411173288174E-1
 1.560000000000000E+10  -5.192120003928693E-1   -8.310412343615680E-1    1.275842230329718E-5    3.027550875990937E-7   -7.147644780396635E-6   -1.693994205585806E-5   -5.419451107197051E-1   -8.045619968250638E-1
 1.561000000000000E+10  -5.214145733964096E-1   -8.265618069400861E-1    5.957818010390882E-6   -3.066847242784428E-6    2.370717093801495E-5   -1.242211275161594E-5   -5.493646532628833E-1   -8.001342197649504E-1
 1.562000000000000E+10  -5.247879170232759E-1   -8.212246004816819E-1    5.195380188750915E-7   -1.447463075143911E-6   -6.428894113155505E-6    6.560556798426923E-7   -5.569589296890978E-1   -7.967689793781403E-1
 1.563000000000000E+10  -5.295144298729744E-1   -8.154693435927451E-1    1.490590674213371E-5   -3.633301085848868E-6   -1.061764949302249E-5   -5.716046334713772E-6   -5.641766073264670E-1   -7.945954844507302E-1
 1.564000000000000E+10  -5.358797723487794E-1   -8.099894430536486E-1    2.301628303495912E-5   -1.416293811771665E-5    1.908368758086839E-6   -3.320280546595174E-6   -5.702353763548659E-1   -7.932837684557767E-1
 1.565000000000000E+10  -5.435000488676192E-1   -8.052999011245480E-1   -1.922817302610499E-5   -6.021304367044390E-6    5.476465141763188E-6   -1.453690358705899E-5   -5.750821246622719E-1   -7.921550204285315E-1
 1.566000000000000E+10  -5.520282421520698E-1   -8.015794176601212E-1   -8.607660615713482E-6    1.002328984820316E-5    2.311889622463033E-6   -3.510653541035145E-6   -5.787729141737212E-1   -7.906324296075619E-1
 1.567000000000000E+10  -5.603261727645473E-1   -7.990099370821080E-1    1.424499966788714E-6    2.149684270586879E-5    3.763057242884996E-6    1.271448906339805E-5   -5.813463428364447E-1   -7.881299551361779E-1
 1.568000000000000E+10  -5.675336946462394E-1   -7.973855685254745E-1   -1.287796051776341E-5    7.326475891892143E-6   -1.062878587806798E-5   -1.176786484601063E-7   -5.836698851610832E-1   -7.846013734183422E-1
 1.569000000000000E+10  -5.731338618051179E-1   -7.962699869657512E-1   -1.641210504522121E-5    4.719819415559183E-6    1.178693980516019E-5    2.316156315089692E-5   -5.863443017178153E-1   -7.798971441158853E-1
 1.570000000000000E+10  -5.769616360619462E-1   -7.949157141826729E-1    1.473435287686090E-5   -2.861699117132353E-6   -5.558599124044381E-6   -6.114682708622160E-6   -5.898510149326694E-1   -7.741348375282661E-1
 1.571000000000000E+10  -5.794234621141525E-1   -7.926727823997110E-1   -1.231495102395850E-7    2.371761029481519E-5   -1.753609545315489E-5   -9.696254071815734E-6   -5.945965984409162E-1   -7.678485874346396E-1
 1.572000000000000E+10  -5.810979934415076E-1   -7.893834301359128E-1    4.867594652151134E-6    2.369935440976743E-6    1.208212317971350E-5    8.842795667515206E-6   -6.005664709560737E-1   -7.617278068213140E-1
 1.573000000000000E+10  -5.829222382824145E-1   -7.847132757967116E-1   -5.306009894628913E-6    1.229106662263117E-5    1.531036476853953E-6    8.479629831181282E-6   -6.075624299969290E-1   -7.563763647947855E-1
 1.574000000000000E+10  -5.855626896879684E-1   -7.792004334365743E-1    1.214554553748946E-6    2.807255911344535E-6    2.634750005006573E-6    6.301275586521799E-6   -6.150477814065509E-1   -7.521396265746221E-1
 1.575000000000000E+10  -5.896111208548245E-1   -7.729676047541165E-1   -3.011616130621182E-6   -6.995644260444772E-6    1.644570226078214E-5   -1.079117971245486E-5   -6.222253001167384E-1   -7.490663051371851E-1
 1.576000000000000E+10  -5.954804807886961E-1   -7.666068140138411E-1   -1.804414696189472E-5   -2.032539679815925E-5   -9.332932515895722E-6    1.857179197116528E-5   -6.286748629133810E-1   -7.468326193198439E-1
 1.577000000000000E+10  -6.026579417501626E-1   -7.609731360268094E-1    1.818735377415859E-5   -2.384186088296321E-6   -2.500464523514267E-6   -3.423509733812429E-6   -6.340416591789677E-1   -7.449935560502586E-1
 1.578000000000000E+10  -6.106660941208553E-1   -7.563216402107562E-1    8.050124661540855E-6    1.559864143449116E-6   -1.628714977347226E-5    2.361912361323338E-6   -6.379569143786586E-1   -7.430139085114614E-1
 1.579000000000000E+10  -6.186767562444110E-1   -7.528324589986257E-1    9.695424646470347E-6   -1.755722177344526E-5   -4.913274974853869E-6    1.516672302310169E-6   -6.408970377304022E-1   -7.403940862988666E-1
 1.580000000000000E+10  -6.260389111669971E-1   -7.504031667140777E-1    7.743730888505150E-6   -9.898318353255176E-6   -1.454049028864770E-5    5.712884050028975E-6   -6.432320273372177E-1   -7.366234611248477E-1
 1.581000000000000E+10  -6.320361565214927E-1   -7.485015130452850E-1   -9.740514940318856E-7   -2.618154841803683E-5   -4.522108217535448E-6    2.051258468241021E-5   -6.455133652491826E-1   -7.316684818522015E-1
 1.582000000000000E+10  -6.362716028650103E-1   -7.465724428796926E-1   -9.757627334832534E-6   -9.298304815356913E-6    1.405789758306025E-5    6.747863978577188E-6   -6.484787723379197E-1   -7.257233855872001E-1
 1.583000000000000E+10  -6.391032184176441E-1   -7.441751901699398E-1    2.169037481661170E-5   -1.246347008105945E-5    5.343982980744526E-6   -1.396035955034555E-7   -6.523936853638097E-1   -7.192246151920667E-1
 1.584000000000000E+10  -6.410611765202177E-1   -7.407385077817268E-1    2.291286681816846E-6    3.332557221122816E-7   -3.850359515696481E-5   -8.969270377030726E-6   -6.574846645118233E-1   -7.129625937031253E-1
 1.585000000000000E+10  -6.427386436237693E-1   -7.361591601892544E-1   -4.843853666028645E-6    2.127093085977143E-5    4.240628534678263E-6   -6.103147631089705E-6   -6.635276984942955E-1   -7.072384172312483E-1
 1.586000000000000E+10  -6.450627730739212E-1   -7.303521321233140E-1   -5.507187054280581E-6    1.061095274515320E-5    1.198623902686334E-5   -3.269215839121533E-7   -6.701834585062993E-1   -7.025756932870906E-1
 1.587000000000000E+10  -6.486115923682723E-1   -7.239186638183411E-1   -7.486508180037686E-6    1.282139239381865E-5    8.632473952628891E-6    6.868003707878823E-6   -6.768450283009763E-1   -6.989185909962301E-1
 1.588000000000000E+10  -6.537547578456576E-1   -7.174038448380378E-1   -4.933846351758157E-6   -5.526705652282317E-6    2.676139379756865E-6    9.158252051813409E-6   -6.831621960131844E-1   -6.960453610526487E-1
 1.589000000000000E+10  -6.604667185798374E-1   -7.113589423676736E-1   -7.544879216984751E-6   -3.810364857633052E-6   -3.935643483670512E-6    4.118536314712384E-6   -6.884414033536360E-1   -6.935084084567168E-1
 1.590000000000000E+10  -6.680011788194480E-1   -7.060085810449640E-1   -4.516257771729134E-7   -8.226637969998400E-6    2.898762273666694E-6   -5.260764767696891E-6   -6.925780178936183E-1   -6.909885526206683E-1
