#  HZ   S   RI   R     50.00 
! Rohde & Schwarz Vector Network Analyzer 
! Rohde-Schwarz,ZNA43-4Port,1332450044101932,2.92
! Created: UTC 4/16/2025, 7:42:18 AM
! freq[Hz]                re:S11                  im:S11                  re:S21                  im:S21                  re:S12                  im:S12                  re:S22                  im:S22
 1.500000000000000E+10  -1.767143576074029E-1   -9.584157651866713E-1   -7.073492173142879E-6    1.649585531668118E-6   -1.013109579465541E-5    1.085957059817641E-6   -2.165314440764222E-1   -9.458645437463944E-1
 1.501000000000000E+10  -1.823702665428032E-1   -9.544067723448302E-1   -4.786371581796114E-6    1.076794221272700E-5    1.452986395583780E-5   -3.792408316412653E-6   -2.245924341390360E-1   -9.449307141550014E-1
 1.502000000000000E+10  -1.896285253916787E-1   -9.505485924411315E-1    2.198069720197639E-6    1.232026122397830E-6    5.603921629774743E-6    1.255427114390426E-6   -2.322222726758912E-1   -9.449939475753668E-1
 1.503000000000000E+10  -1.978409788360393E-1   -9.477001961150062E-1    5.979073509900071E-6    5.707454458710682E-6    1.254590643783279E-5   -7.340697145460722E-6   -2.388813818830897E-1   -9.458410882142785E-1
 1.504000000000000E+10  -2.065726995479490E-1   -9.461078818632238E-1   -6.842295413078306E-6   -2.064920182028573E-5    4.131251076751465E-6   -1.173650248365364E-5   -2.442673891639565E-1   -9.468459543485047E-1
 1.505000000000000E+10  -2.154986315588758E-1   -9.458012929202327E-1   -9.095665170904094E-6   -3.504936727373408E-6   -9.520209737155329E-6    1.647886071297044E-5   -2.488723500112216E-1   -9.472176142327450E-1
 1.506000000000000E+10  -2.238037730570927E-1   -9.467485207517704E-1   -6.993351774695496E-6    1.037261165522238E-5    3.070261607156580E-6   -4.340738781552243E-7   -2.525558203269737E-1   -9.466419609233138E-1
 1.507000000000000E+10  -2.306876029030142E-1   -9.481253041426853E-1    7.571026759193370E-7   -5.782937686278438E-6   -3.612655971057771E-6   -1.035666734068568E-5   -2.561626710980860E-1   -9.447476086336445E-1
 1.508000000000000E+10  -2.360604724133735E-1   -9.494652353579074E-1    9.025081709811125E-6    5.404656397180494E-6    4.446048995969523E-6   -1.156382530242558E-5   -2.601019036178719E-1   -9.416282885882673E-1
 1.509000000000000E+10  -2.399417026795783E-1   -9.498928693317525E-1   -1.794747381474280E-7   -1.687881414321434E-5   -8.060125803332667E-6   -6.987896519876072E-6   -2.650252622224344E-1   -9.378301758606726E-1
 1.510000000000000E+10  -2.429797136556527E-1   -9.489932865153390E-1    7.722876647108853E-6    1.854213212259381E-5   -8.543331028076435E-6   -1.731605067491987E-5   -2.708648578156298E-1   -9.339080116353402E-1
 1.511000000000000E+10  -2.459581173333985E-1   -9.466962899082045E-1    1.456660619394790E-5    9.014804235472087E-7   -2.344067188482255E-6   -1.117533246731737E-5   -2.779266554500699E-1   -9.302785446886475E-1
 1.512000000000000E+10  -2.495703197633478E-1   -9.431252328363380E-1   -1.010533031541070E-5    1.454669762540665E-6    2.893487711398316E-6   -1.702392567340983E-5   -2.857549945985369E-1   -9.275280149792989E-1
 1.513000000000000E+10  -2.543084503503428E-1   -9.386570117895662E-1    6.924533304235399E-7   -1.974378949098238E-5   -2.209588072036480E-5   -5.052259727368421E-6   -2.938352437050678E-1   -9.257587060578195E-1
 1.514000000000000E+10  -2.605664773987657E-1   -9.344187567555657E-1   -6.110352138553305E-6    6.826331408167744E-6   -4.670999832287478E-6   -2.785714826577812E-5   -3.017319482324660E-1   -9.250015999812591E-1
 1.515000000000000E+10  -2.677810539294430E-1   -9.312161901941820E-1    1.321824400022920E-6    3.059324581205361E-6    1.052093017194021E-5   -1.215656728178748E-5   -3.088110943996695E-1   -9.250845498663421E-1
 1.516000000000000E+10  -2.760336243866907E-1   -9.289304244830159E-1    2.495585392422655E-6   -1.656584445478078E-5   -1.213258124002266E-5   -1.411077498053198E-5   -3.146708910881240E-1   -9.254334621796882E-1
 1.517000000000000E+10  -2.844102232646750E-1   -9.278133420777058E-1    1.495332391806061E-5   -1.268128682368618E-5   -8.988669890916802E-7    3.573461490844471E-7   -3.192155135638095E-1   -9.254486151013699E-1
 1.518000000000000E+10  -2.928266478519267E-1   -9.278416040443683E-1   -6.110497526511331E-8   -3.044837116706782E-6   -4.977153909471637E-6   -2.989217631621249E-6   -3.230070879195227E-1   -9.247210780818550E-1
 1.519000000000000E+10  -2.999008543234910E-1   -9.285502129914714E-1   -3.283842900308415E-6   -2.944823801909998E-6   -4.360559282506962E-6   -7.854204775342714E-6   -3.264652959698255E-1   -9.227650138129259E-1
 1.520000000000000E+10  -3.055707090458469E-1   -9.290819369812710E-1   -5.228884779542286E-6    2.861437411161429E-5    1.820176496736896E-5    1.007915374456673E-5   -3.300625513922946E-1   -9.196368405918341E-1
 1.521000000000000E+10  -3.095855607507864E-1   -9.293053683709107E-1    8.152254015494099E-7    8.098953287142342E-7   -1.917495998338813E-6   -8.671106041893440E-6   -3.343121250315220E-1   -9.156499782107324E-1
 1.522000000000000E+10  -3.126947297069653E-1   -9.284308765138701E-1   -6.602897565133248E-6    2.799140263915635E-5    2.659979610908880E-5   -1.733830383975824E-5   -3.396173047583370E-1   -9.113536052617877E-1
 1.523000000000000E+10  -3.155917243591151E-1   -9.260134868412906E-1    6.196080633623799E-6    9.466784090043592E-6   -5.118136573463255E-6    9.465303807990123E-6   -3.460112514912931E-1   -9.072869158359769E-1
 1.524000000000000E+10  -3.188145206043052E-1   -9.221867680424969E-1    1.190352387938754E-5    7.175994273577079E-6    5.134159941978038E-7   -1.989629511483192E-5   -3.533832498928389E-1   -9.038430235868785E-1
 1.525000000000000E+10  -3.233459996792543E-1   -9.175644233056498E-1    2.675435360053852E-6    6.095387743672177E-6    1.187226434649355E-5   -1.352831953104837E-5   -3.611607590429147E-1   -9.012790543014256E-1
 1.526000000000000E+10  -3.293314912047464E-1   -9.125409170125358E-1   -5.284962113650557E-6   -1.203323883530832E-5   -1.091797259275400E-6    2.104784478204947E-5   -3.688610643380226E-1   -8.997113379439705E-1
 1.527000000000000E+10  -3.366986487948296E-1   -9.081752326549959E-1    5.619304649110329E-6    1.750220223443486E-6    1.216666870020149E-5    1.245507660840016E-5   -3.759423816806012E-1   -8.991210946763913E-1
 1.528000000000000E+10  -3.449345446284347E-1   -9.047659806138398E-1    4.387181155681850E-6    7.795159821358390E-6    7.623062283909805E-6   -1.276774415000142E-5   -3.819015568265486E-1   -8.989744345086925E-1
 1.529000000000000E+10  -3.535540134046347E-1   -9.026743758130011E-1   -3.904269089416068E-6   -1.157891901453316E-5   -1.040931966077399E-5   -1.701940899148840E-5   -3.867483184899461E-1   -8.986868140624013E-1
 1.530000000000000E+10  -3.619772812985300E-1   -9.015032662518176E-1   -6.142827259142610E-6   -2.997510158757787E-5   -5.632495351630424E-6    1.605369307330646E-5   -3.908123241430374E-1   -8.975356429385096E-1
 1.531000000000000E+10  -3.698941118637041E-1   -9.017527610894986E-1   -4.096925487934643E-6    1.662703957064192E-5    9.085731397537185E-6   -1.564275832310773E-6   -3.944388088235666E-1   -8.954637531865501E-1
 1.532000000000000E+10  -3.760000313950669E-1   -9.023180418647171E-1   -1.046771227195926E-5   -1.464511822639309E-6   -5.820676461281139E-6   -5.515744669152448E-7   -3.980266541514045E-1   -8.920451059246095E-1
 1.533000000000000E+10  -3.804288801557261E-1   -9.028700090684695E-1    2.512965415312845E-5   -2.822695325036628E-5   -2.144832822838155E-5   -1.584604696811311E-5   -4.022802049852797E-1   -8.877291386620970E-1
 1.534000000000000E+10  -3.834598421508312E-1   -9.020797702449121E-1    3.276299558165383E-6   -5.036293709425162E-6   -6.767855418907174E-7   -1.892698429252729E-5   -4.074492886347209E-1   -8.830143589173575E-1
 1.535000000000000E+10  -3.858391644669900E-1   -8.999527873569239E-1    1.819949094584740E-5   -6.001350047243233E-6    2.411180461967743E-5   -1.217084562451446E-5   -4.136149532162178E-1   -8.784333405159265E-1
 1.536000000000000E+10  -3.884392171772930E-1   -8.963319540501361E-1   -1.602203883331185E-5    7.928779191738939E-7   -2.155262666784252E-6   -3.367447329628493E-6   -4.208109291212086E-1   -8.744767145307891E-1
 1.537000000000000E+10  -3.921753585846333E-1   -8.913936721110638E-1    1.757459231379963E-5   -2.780106198425180E-5   -1.859817815121203E-5   -2.131320921587293E-6   -4.284673320954194E-1   -8.714492991592985E-1
 1.538000000000000E+10  -3.973081441594689E-1   -8.859212542866880E-1   -1.853941281788789E-5    1.020434398514497E-5    1.554723543663817E-6    4.649774469715119E-6   -4.362987859318591E-1   -8.693134620638859E-1
 1.539000000000000E+10  -4.040359598144624E-1   -8.809191013351867E-1   -5.562928258928332E-6   -1.198380283489764E-5    1.961872143568075E-5    6.687243869275853E-6   -4.434807521268211E-1   -8.680815390927903E-1
 1.540000000000000E+10  -4.119606213848006E-1   -8.765900461050742E-1   -1.995436767935830E-6   -1.404529642918855E-5    8.317902934392564E-6   -1.542517132884823E-5   -4.495781182498108E-1   -8.673794635633320E-1
 1.541000000000000E+10  -4.207351949297281E-1   -8.733890124846617E-1   -6.058267150828169E-6   -1.375734418670818E-5    1.616971872684689E-5   -2.065577345193364E-5   -4.546133757787427E-1   -8.665849439133975E-1
 1.542000000000000E+10  -4.295230417004232E-1   -8.713703400065046E-1   -2.191826230594727E-5   -2.424353547723058E-6   -2.394513514839682E-6   -6.942143609714864E-6   -4.587889480039193E-1   -8.653012005029582E-1
 1.543000000000000E+10  -4.377029179566783E-1   -8.705754906002779E-1    1.509667965555492E-5   -9.218777151622258E-7   -2.614829239639908E-7    1.797609886071119E-6   -4.621448323511934E-1   -8.629538680993140E-1
 1.544000000000000E+10  -4.442522393133769E-1   -8.703220668047189E-1    1.116415565216087E-6   -5.898342396536373E-6   -8.844589906650773E-6   -1.249617133184216E-5   -4.654366721344614E-1   -8.593748490691239E-1
 1.545000000000000E+10  -4.490532176068061E-1   -8.703158235656522E-1    6.661843518697930E-7   -1.067600450674423E-5    2.002547003431538E-5    1.725819936072399E-5   -4.691946490555591E-1   -8.549680384491785E-1
 1.546000000000000E+10  -4.522571151342938E-1   -8.695905867073528E-1    1.141346255561450E-5   -1.027886883078889E-5   -4.074380945966403E-6   -1.356772039404193E-6   -4.739772976653300E-1   -8.498917203715066E-1
 1.547000000000000E+10  -4.543164370658996E-1   -8.675892280316128E-1   -5.573279582683980E-6   -1.827978346479963E-5    6.248842709618431E-6    7.631955253469666E-6   -4.797204591386445E-1   -8.446873157955054E-1
 1.548000000000000E+10  -4.562573776724539E-1   -8.642825875900394E-1   -2.420997296748853E-6    1.312043178918620E-5    5.861472329045215E-6    4.823007217641867E-6   -4.863065358253004E-1   -8.400183846152656E-1
 1.549000000000000E+10  -4.588793784015596E-1   -8.597427779099791E-1   -1.047977840993195E-5   -9.689305946520381E-6    4.382259962130168E-6   -2.175371519502553E-5   -4.934221816344365E-1   -8.362911076292521E-1
 1.550000000000000E+10  -4.627557410482054E-1   -8.542171262827211E-1   -8.883433147589613E-6    2.393115702276147E-5    7.472559440557346E-6   -6.058085891397075E-6   -5.007253729314285E-1   -8.335665178417233E-1
 1.551000000000000E+10  -4.685793142424580E-1   -8.486387811965265E-1   -1.279026717865648E-5    1.319745732179880E-7    1.648361327973157E-5    5.448760937019943E-7   -5.075976697989335E-1   -8.319559053408914E-1
 1.552000000000000E+10  -4.758568784488500E-1   -8.434642612835005E-1    2.263111119757499E-5    1.850242928500664E-5    7.561243161642904E-6   -4.896227995228236E-6   -5.134898430690966E-1   -8.310115426957592E-1
 1.553000000000000E+10  -4.842105821070282E-1   -8.391849586698318E-1    5.016643284088264E-7    6.524746321836460E-6    1.093179720979196E-5   -8.116038444246352E-6   -5.183548387437317E-1   -8.299893771544785E-1
 1.554000000000000E+10  -4.928462381157812E-1   -8.361513786352374E-1   -2.673709387355089E-6   -1.414406831814631E-5   -6.804168128727390E-6    1.296683547810920E-5   -5.222139182006647E-1   -8.284272701195372E-1
 1.555000000000000E+10  -5.010729958312261E-1   -8.342406642030081E-1   -1.922459593596103E-5    2.915028819886464E-6    9.519074304756887E-6   -1.429592521519307E-5   -5.254246626765335E-1   -8.258989265051082E-1
 1.556000000000000E+10  -5.081814180467070E-1   -8.331576053607871E-1    9.774186465087824E-6    4.895237229214611E-6    3.169838445401631E-7   -3.628760594451542E-6   -5.285682049123425E-1   -8.221126438807734E-1
 1.557000000000000E+10  -5.137691743782437E-1   -8.323778046978391E-1   -5.526980469061049E-6   -1.088281658014091E-5   -1.164582162032366E-5   -3.221096000219907E-6   -5.321818552618892E-1   -8.172021700354665E-1
 1.558000000000000E+10  -5.175378956943801E-1   -8.313236181702713E-1    6.487635715609842E-6    1.968827824808169E-5   -8.832331127634265E-6   -1.114430210994544E-5   -5.365150881314514E-1   -8.117256723211551E-1
 1.559000000000000E+10  -5.200048675988571E-1   -8.292996849536580E-1   -2.482172534405116E-5    6.740060049563418E-6   -1.239629686005995E-5   -2.963175632938605E-6   -5.419117043059112E-1   -8.059974019031608E-1
 1.560000000000000E+10  -5.218408603131198E-1   -8.262154514374501E-1   -4.493228824645404E-6   -1.376227448327749E-5   -2.234505596824978E-5   -6.472768662856125E-6   -5.483090690913928E-1   -8.007476156643746E-1
 1.561000000000000E+10  -5.241827099153054E-1   -8.217999126939789E-1   -1.213714736309803E-5    1.287364684883652E-5   -7.327303099141986E-6   -2.450089998361356E-6   -5.555233828412838E-1   -7.963757233468679E-1
 1.562000000000000E+10  -5.276338904825721E-1   -8.166278847593006E-1    2.211952207536411E-5   -3.066459144521006E-6    2.598113090947078E-5   -5.424525657668443E-6   -5.629307148806556E-1   -7.930246851908777E-1
 1.563000000000000E+10  -5.323277728942534E-1   -8.109790997109103E-1   -1.010790835631559E-5   -1.697051798834498E-6   -9.290690802798527E-6    3.198155124732965E-6   -5.699254440919651E-1   -7.907643401488766E-1
 1.564000000000000E+10  -5.385844281777997E-1   -8.056221761619726E-1    1.005122355909250E-5    1.085384092463010E-5    9.950130032497837E-6   -6.886159544908281E-6   -5.758955875768479E-1   -7.892290709618934E-1
 1.565000000000000E+10  -5.459393133284350E-1   -8.010322786573045E-1    4.091318707001967E-6    6.871921794296061E-6   -5.078255195399669E-6   -1.463012205522177E-5   -5.807147120949607E-1   -7.879387873378570E-1
 1.566000000000000E+10  -5.542829195451138E-1   -7.971843399080650E-1    3.812137571257661E-6   -9.919999755637784E-6    7.702405541223045E-6    1.386546495298932E-5   -5.844838585978207E-1   -7.863017441646676E-1
 1.567000000000000E+10  -5.623717214521347E-1   -7.945319858208205E-1    5.203120567072442E-6   -2.604920705550235E-6    2.417872600363674E-5   -1.366402029880240E-5   -5.871759822477643E-1   -7.837302708004117E-1
 1.568000000000000E+10  -5.693891985501449E-1   -7.927334118004415E-1   -8.807099756119574E-6   -2.190484869999792E-5   -1.208808740419598E-5    4.545055083039532E-6   -5.897077832822815E-1   -7.800943982088332E-1
 1.569000000000000E+10  -5.749804638664734E-1   -7.914284577594241E-1    2.072681062362355E-5    6.131718504491181E-6   -8.789739380378632E-6   -1.976897756164407E-5   -5.924866401299589E-1   -7.753563595117149E-1
 1.570000000000000E+10  -5.789404052985215E-1   -7.898660298635336E-1   -4.456475491271849E-6   -3.737506508051497E-6    1.878628126942909E-5    6.832194219449643E-7   -5.960654058036011E-1   -7.696605496359933E-1
 1.571000000000000E+10  -5.814472270729858E-1   -7.876059223577377E-1    4.564873953467402E-6    1.054376779306083E-5   -1.201972785009032E-5    1.154523507081115E-7   -6.007903800770594E-1   -7.634542528708228E-1
 1.572000000000000E+10  -5.833028166168752E-1   -7.843653598471401E-1   -4.324226923887369E-5    1.714208408275889E-6   -9.387890083986047E-6   -9.161328640014979E-6   -6.066872477429887E-1   -7.574985519346125E-1
 1.573000000000000E+10  -5.853179568440907E-1   -7.798029973969545E-1   -1.937237031272312E-8    1.078299779125039E-5    6.690066293872458E-6   -1.039610301663856E-5   -6.134589568985557E-1   -7.521105705211250E-1
 1.574000000000000E+10  -5.880918282079162E-1   -7.743631832023116E-1   -1.504039493110121E-5   -1.209125550547460E-5    4.746506089016549E-6    1.327735593522958E-5   -6.207552890883727E-1   -7.478323905661806E-1
 1.575000000000000E+10  -5.921249055622470E-1   -7.683080825818884E-1    6.032193886466528E-6   -1.315530595746202E-5   -1.609868369594322E-6   -1.405742424891251E-5   -6.277674635624015E-1   -7.446779502464742E-1
 1.576000000000000E+10  -5.978968891163271E-1   -7.620777379655074E-1   -9.185171059128679E-6   -2.337060869333913E-6    1.355236952997946E-5   -2.648873435613856E-5   -6.340533116956683E-1   -7.422522020475213E-1
 1.577000000000000E+10  -6.048945472782910E-1   -7.565235599336354E-1   -1.736196041419402E-5    9.265532762114056E-6    1.288818852947825E-5   -5.071965918008981E-6   -6.393732125985585E-1   -7.402563605039854E-1
 1.578000000000000E+10  -6.126465080984793E-1   -7.518407114508487E-1   -8.797700154812163E-6   -1.369082966161688E-5    2.419491402987214E-6   -1.729034270546896E-6   -6.433333308341569E-1   -7.380839496445492E-1
 1.579000000000000E+10  -6.204354961596685E-1   -7.482287101933807E-1   -9.976602116315566E-7    1.979020207684198E-5    6.618669135551511E-6   -1.560000644269792E-5   -6.463629618649862E-1   -7.352654557948576E-1
 1.580000000000000E+10  -6.276730018520442E-1   -7.455848813647076E-1   -1.061283635405461E-5    5.583343409660053E-6   -3.550264110617392E-7    4.286650459689466E-7   -6.487819718532840E-1   -7.314333012997516E-1
 1.581000000000000E+10  -6.335180138755483E-1   -7.434388614297853E-1   -1.173510307326780E-5    1.579581815873103E-7    2.178002543491230E-6   -2.572909146530743E-5   -6.512275943062629E-1   -7.264465016374518E-1
 1.582000000000000E+10  -6.378257685680645E-1   -7.413449740952107E-1    1.240605207311195E-5   -1.406652823295712E-5    8.818469945714743E-6    3.957944953408557E-6   -6.541047352128732E-1   -7.205304769460266E-1
 1.583000000000000E+10  -6.407645170089543E-1   -7.389108225318566E-1    2.738492172936641E-5   -9.316062382616258E-6   -2.335921621527762E-5    9.072724489007688E-6   -6.579918268245516E-1   -7.141553479475480E-1
 1.584000000000000E+10  -6.429958246812512E-1   -7.354398008560878E-1   -1.970696328491706E-6   -3.724734658057013E-5    2.450224846570549E-7    6.452192560578230E-6   -6.629835647680171E-1   -7.079217691673276E-1
 1.585000000000000E+10  -6.448512960797467E-1   -7.310100473270169E-1    7.067489127165402E-6   -1.122951941334640E-5   -2.654121129057581E-6    1.641634292806042E-6   -6.690028377026435E-1   -7.023126096833257E-1
 1.586000000000000E+10  -6.473336853455761E-1   -7.252409180671654E-1   -6.682506441705560E-6    1.201003125186689E-6   -1.508935683835893E-5    8.537850176343821E-6   -6.754830512221935E-1   -6.976295632570556E-1
 1.587000000000000E+10  -6.509006832364456E-1   -7.189843732405194E-1   -1.920355182457420E-5   -1.204191322405942E-5    2.585865184175483E-6   -1.721343040152885E-6   -6.819458040525131E-1   -6.938405297006428E-1
 1.588000000000000E+10  -6.559139237884178E-1   -7.126907008454639E-1    4.770499043694865E-6   -1.098119892956573E-5    6.241120012650549E-6    8.936024299341328E-6   -6.880962724454737E-1   -6.907757650783972E-1
 1.589000000000000E+10  -6.624212682922964E-1   -7.067447865054325E-1    4.350056626885077E-6   -4.797067474257000E-6    1.005354105601239E-6   -4.750175927303042E-6   -6.932954781762326E-1   -6.880462653690608E-1
 1.590000000000000E+10  -6.697315163862652E-1   -7.014507994970067E-1    6.195782792960559E-6    7.753816740675861E-6   -1.007216207806470E-5    4.308961039501134E-6   -6.974682665627251E-1   -6.853379468159712E-1
