#  HZ   S   RI   R     50.00 
! Rohde & Schwarz Vector Network Analyzer 
! Rohde-Schwarz,ZNA43-4Port,1332450044101932,2.92
! Created: UTC 4/16/2025, 7:33:42 AM
! freq[Hz]                re:S11                  im:S11                  re:S21                  im:S21                  re:S12                  im:S12                  re:S22                  im:S22
 1.500000000000000E+10  -1.759890974938250E-1   -9.581267073326337E-1    3.230118969892679E-6   -6.159255183055442E-6   -1.140559600827319E-5   -1.072537889422846E-5   -2.235900522709909E-1   -9.407828239979018E-1
 1.501000000000000E+10  -1.818852620504649E-1   -9.547106132866278E-1    8.375475136951426E-6   -1.394049143930659E-6   -1.268532194781385E-5    7.080484836046571E-7   -2.309539589963799E-1   -9.396063555566622E-1
 1.502000000000000E+10  -1.890464872755454E-1   -9.514709479727517E-1   -7.950256273465145E-6   -1.389773077620383E-5    4.363228924898798E-6   -9.172141260433075E-7   -2.380940956961526E-1   -9.391817058323589E-1
 1.503000000000000E+10  -1.968599920741706E-1   -9.490169861282651E-1   -1.026008775419083E-5    1.965910419988421E-5   -7.575671356394318E-6    1.312599759000000E-5   -2.445273423220506E-1   -9.393157164247491E-1
 1.504000000000000E+10  -2.050358920148317E-1   -9.474959830188282E-1   -3.755342291914010E-6    8.023069336700480E-6   -5.532528157743171E-6    1.813192817448055E-5   -2.500468033283509E-1   -9.395057342605735E-1
 1.505000000000000E+10  -2.133898312193954E-1   -9.470815526111914E-1   -9.655483295799183E-7    2.772687773090650E-6   -2.748291787898419E-7   -8.563605525033397E-6   -2.549579370244282E-1   -9.393945350549633E-1
 1.506000000000000E+10  -2.211430357995861E-1   -9.475089240294789E-1    3.132569342841586E-6    8.029522036380787E-6    3.151151624715935E-6   -7.068329613840302E-6   -2.591985820880789E-1   -9.385903129316202E-1
 1.507000000000000E+10  -2.277150633851086E-1   -9.482412572126730E-1    5.084712844822020E-7   -5.091119918483830E-6    1.814590347424070E-6    3.797057581123974E-6   -2.634455746633519E-1   -9.367461476514526E-1
 1.508000000000000E+10  -2.330954554083544E-1   -9.489931336217526E-1    6.718485289589358E-6    4.462299672162551E-6   -8.224814237114146E-7    1.047489180684754E-5   -2.679143186087225E-1   -9.340399222681047E-1
 1.509000000000000E+10  -2.372813179373653E-1   -9.489824890547257E-1    9.735490183916026E-6    6.993285410933280E-6   -5.126641898054177E-6   -1.219215446178634E-5   -2.730876055003180E-1   -9.308729354343339E-1
 1.510000000000000E+10  -2.408574642683769E-1   -9.479539191230358E-1   -3.663848925927609E-6    5.565176025592949E-7   -6.720670333857031E-7   -1.737854428785936E-6   -2.788148964763773E-1   -9.275914510877258E-1
 1.511000000000000E+10  -2.444854262826196E-1   -9.458950368522839E-1    1.525775657187959E-6    5.644779318460136E-7   -1.178023861235970E-5   -2.009829800219922E-7   -2.854381625341427E-1   -9.245458321933558E-1
 1.512000000000000E+10  -2.485760285065582E-1   -9.427800225864206E-1    1.180653190220719E-5    4.875771912533366E-6   -5.293830268637596E-6   -3.249391384788562E-6   -2.926293134939537E-1   -9.220658491222208E-1
 1.513000000000000E+10  -2.536624072781065E-1   -9.389649945219036E-1    8.045713139221854E-6    6.945050280468165E-6   -8.902014991152183E-6    1.327709121631642E-5   -2.999632707277815E-1   -9.202273947530600E-1
 1.514000000000000E+10  -2.599264586872554E-1   -9.354132910553621E-1    9.033034036410619E-6   -8.565420181228746E-6   -4.573746549177958E-6   -4.279769419837197E-6   -3.071913089079228E-1   -9.190997246691063E-1
 1.515000000000000E+10  -2.668494666535378E-1   -9.325745523954457E-1    1.740638464200053E-5   -2.179003614939880E-5   -3.954672491688018E-6    2.714834352821429E-6   -3.137741511023991E-1   -9.185979182881860E-1
 1.516000000000000E+10  -2.745263030302221E-1   -9.304746120733990E-1   -4.780774495185939E-6   -1.061036536706155E-6   -1.585370079470925E-5    2.519623914022217E-6   -3.194797613445893E-1   -9.182923176406740E-1
 1.517000000000000E+10  -2.822588266823745E-1   -9.291942644763688E-1    1.259759088487189E-5    8.862017833792151E-6    5.638032090909849E-6   -4.051894835153977E-6   -3.242200024479570E-1   -9.177112397887425E-1
 1.518000000000000E+10  -2.900677973806012E-1   -9.287747506455923E-1   -3.992844045619249E-6    1.734293325463026E-6   -7.145949821620775E-6   -3.367649284882986E-6   -3.285668377288874E-1   -9.166368644347493E-1
 1.519000000000000E+10  -2.967754959283347E-1   -9.288545340355029E-1    1.807973278473128E-6    1.770647119857632E-6   -1.674716929918808E-5    1.640161916933376E-5   -3.325501775119137E-1   -9.145337662305697E-1
 1.520000000000000E+10  -3.024918069839599E-1   -9.288966802158540E-1   -1.559568766112250E-5   -6.301686149150249E-6    8.677023819219410E-7    1.031322939343919E-6   -3.368036124158512E-1   -9.115491214310378E-1
 1.521000000000000E+10  -3.068037642288741E-1   -9.286116944185671E-1   -1.125494475313780E-5   -9.415392499523213E-6   -9.398029804702033E-6    8.792812310795961E-6   -3.414190853765106E-1   -9.080462802117470E-1
 1.522000000000000E+10  -3.104310548478186E-1   -9.274210957563109E-1    1.334855540378820E-5    2.608036531682430E-6   -1.949277360335274E-5    3.981751051795908E-6   -3.469698844479522E-1   -9.043371809894931E-1
 1.523000000000000E+10  -3.139994546949849E-1   -9.251386352047801E-1    2.784983015769256E-6   -1.599169873136891E-5    4.789077461728812E-6    1.218654723129833E-5   -3.531546152349615E-1   -9.007974496226384E-1
 1.524000000000000E+10  -3.178413284485020E-1   -9.217402840485498E-1    6.346640973644549E-6   -1.023267717103909E-6    5.780889640355891E-6   -1.701776377847606E-6   -3.601141361332353E-1   -8.976999584066733E-1
 1.525000000000000E+10  -3.227822224494539E-1   -9.176892147540353E-1    1.228871840216092E-5   -1.095578500693154E-5    4.938411728023834E-6   -9.838279906722379E-7   -3.672726825668365E-1   -8.951682931376183E-1
 1.526000000000000E+10  -3.288356708708746E-1   -9.132796392910861E-1   -4.685362434738809E-6   -6.429857753408247E-6    9.478036629521413E-6    2.041546478754318E-6   -3.743734283715869E-1   -8.933859468959380E-1
 1.527000000000000E+10  -3.359375476218233E-1   -9.094140598831589E-1   -3.058902324785022E-6    8.142627693373228E-6   -5.923859647236273E-6   -1.312391817351259E-5   -3.809112295872826E-1   -8.923459610449227E-1
 1.528000000000000E+10  -3.436444367978722E-1   -9.063399850872009E-1   -1.449268160548761E-5    8.824235219777501E-6    1.164520753276043E-5    3.235167270679549E-6   -3.867171910119676E-1   -8.916401572474524E-1
 1.529000000000000E+10  -3.515771731705225E-1   -9.041910049968355E-1    2.061518981768909E-5   -6.511394529086385E-6    5.133821235259892E-6   -1.256305608844863E-5   -3.916528309448818E-1   -8.907741049062156E-1
 1.530000000000000E+10  -3.593196108784471E-1   -9.027096949258970E-1    9.978476980525194E-6   -7.732536917206372E-6   -1.476232017652112E-6    1.126550037796872E-5   -3.959734891972168E-1   -8.892242317101108E-1
 1.531000000000000E+10  -3.667488651334322E-1   -9.023880565846437E-1    1.388455745136782E-6   -1.571550170782499E-5   -1.655380412384705E-5    3.050419804813270E-5   -4.000295652030844E-1   -8.870409534487452E-1
 1.532000000000000E+10  -3.726974687896475E-1   -9.023711139335338E-1    1.213828706946182E-6   -1.588978168180800E-5    1.590530317866508E-5   -7.391556236847422E-7   -4.040589996088239E-1   -8.837952564665253E-1
 1.533000000000000E+10  -3.772935546367999E-1   -9.023362047954323E-1   -1.926412015235180E-6    5.774287239530478E-6   -4.988902246721511E-6    1.080624882176850E-6   -4.086564341891036E-1   -8.799048056265627E-1
 1.534000000000000E+10  -3.808757643151421E-1   -9.013479207904096E-1   -7.188501832410790E-6   -6.147463514834325E-6    2.311846726149163E-6    7.736966992588246E-7   -4.139462042681883E-1   -8.756376342119481E-1
 1.535000000000000E+10  -3.839372876909361E-1   -8.991933503602421E-1   -1.488971507160136E-6   -2.472000023547060E-5   -7.901912748083723E-6   -1.371277141824823E-6   -4.200264830042790E-1   -8.714779041348023E-1
 1.536000000000000E+10  -3.871957622549997E-1   -8.958192923026507E-1   -4.672094220686143E-6   -8.959534777253969E-6   -1.464006223708003E-5   -5.070434987853982E-6   -4.268879445075408E-1   -8.678176401222535E-1
 1.537000000000000E+10  -3.914378435064519E-1   -8.915378160906788E-1   -2.791512431330762E-6    4.155198200436622E-6    1.782293184518186E-6    1.420179561549048E-5   -4.340197950781966E-1   -8.648797327946466E-1
 1.538000000000000E+10  -3.967545044452030E-1   -8.866670239729071E-1    3.859373383027342E-6    2.078048991510040E-5    3.770614806513986E-7    9.613003135895509E-6   -4.412386650362812E-1   -8.625150063852235E-1
 1.539000000000000E+10  -4.033528901957864E-1   -8.822420278879920E-1    1.109357808357622E-6   -1.738263924804340E-5    2.591523966966930E-5    5.178668090659691E-6   -4.479516575893410E-1   -8.608850947720128E-1
 1.540000000000000E+10  -4.108452448953275E-1   -8.783132697881473E-1    9.599805346993203E-6   -5.194875004023905E-6    4.474383087815759E-6    7.686107262328792E-6   -4.538179144787647E-1   -8.596026766281644E-1
 1.541000000000000E+10  -4.189893718741566E-1   -8.752271864877591E-1   -1.538144701481301E-5    5.928077815149772E-8    1.806621414840871E-6    9.826163159579686E-6   -4.588989151620517E-1   -8.583369825487027E-1
 1.542000000000000E+10  -4.271532387001695E-1   -8.728969724319442E-1   -1.885403367399009E-5    8.929692282142419E-6   -1.749644376187479E-5    5.308180572501630E-6   -4.634306631176275E-1   -8.566246119650404E-1
 1.543000000000000E+10  -4.348159936548328E-1   -8.716347868387504E-1   -6.882530246792414E-6   -1.451154691945430E-5   -3.912589475111816E-6    9.766535823369528E-6   -4.672601607729492E-1   -8.541078293672457E-1
 1.544000000000000E+10  -4.410893757577727E-1   -8.708406509945543E-1    1.372888606342002E-5    3.993622119226788E-6    1.178056492502276E-6   -1.935882227879582E-5   -4.709733354448649E-1   -8.507468314687195E-1
 1.545000000000000E+10  -4.460133522650579E-1   -8.702860460991271E-1    1.423858765749767E-5   -7.329815082089619E-6    1.359478174395651E-5   -1.185934198393017E-6   -4.750344892014730E-1   -8.466461647391563E-1
 1.546000000000000E+10  -4.496809498781028E-1   -8.691893800020697E-1   -1.756279123222933E-5    2.409403421644238E-5    6.763373274104341E-6   -9.637711007941802E-6   -4.800171930243866E-1   -8.420218781479325E-1
 1.547000000000000E+10  -4.524078409680356E-1   -8.671128411867993E-1    1.875798820559307E-5    1.755363747531593E-5    1.720948972520836E-5    1.007423221697922E-5   -4.854591098306376E-1   -8.373211018853121E-1
 1.548000000000000E+10  -4.549620581908925E-1   -8.639414986774860E-1   -9.217115406283891E-6   -6.786027695022773E-6   -1.651211957919341E-5    6.144340751628048E-6   -4.916985843062763E-1   -8.330243726236447E-1
 1.549000000000000E+10  -4.580715302006924E-1   -8.599317791225035E-1   -1.266716608527046E-5    1.538848973940534E-5    1.304401879346910E-5    7.780983065750437E-6   -4.983359909092569E-1   -8.293095726893243E-1
 1.550000000000000E+10  -4.622566330056001E-1   -8.549805087645788E-1   -1.400293573989314E-5    6.815273766213254E-6    2.082324900885059E-6    9.968657524714204E-6   -5.050361879143923E-1   -8.263041781690201E-1
 1.551000000000000E+10  -4.680075930472268E-1   -8.500108242020230E-1    1.086073861076674E-6   -1.148722401494232E-5    3.014257158658815E-6    1.772224812921827E-5   -5.115022570258551E-1   -8.242489976173616E-1
 1.552000000000000E+10  -4.748215892257078E-1   -8.452782302113266E-1    3.534697839960395E-7    4.967308788543693E-6    8.425148511462457E-7    1.385847982422992E-5   -5.172583038831193E-1   -8.226678600978262E-1
 1.553000000000000E+10  -4.825694885486174E-1   -8.411568485981216E-1   -1.015405965603366E-5   -7.855518830382226E-6    5.601199031451717E-6    1.928917672982295E-5   -5.222027104187569E-1   -8.209591682336392E-1
 1.554000000000000E+10  -4.905394718291665E-1   -8.380399732079928E-1    1.832553305626775E-5   -1.546590421186532E-6    7.768499545257710E-6    2.794654781594892E-5   -5.263767299769607E-1   -8.189355000928539E-1
 1.555000000000000E+10  -4.982758045509830E-1   -8.357235735901468E-1   -1.316397210735569E-6   -2.176495882689018E-5   -6.366629056525733E-6   -1.586061643958979E-5   -5.300834984554516E-1   -8.161913528918999E-1
 1.556000000000000E+10  -5.050574904603928E-1   -8.341356172281640E-1   -1.259279017410110E-5   -3.688173887620773E-6   -1.527800920164199E-5   -1.310666479793142E-5   -5.337363778882966E-1   -8.125505426154913E-1
 1.557000000000000E+10  -5.107039851451742E-1   -8.327328876799911E-1   -2.256192918170120E-5   -5.237368944683498E-6    1.674542128571036E-5    1.135838194140758E-5   -5.377074886627931E-1   -8.079348637270309E-1
 1.558000000000000E+10  -5.148278925753124E-1   -8.312309157717467E-1   -3.596673782906300E-6    1.463796163333666E-5    5.003652993414609E-6   -1.574214390952463E-5   -5.421944475782580E-1   -8.030174091290434E-1
 1.559000000000000E+10  -5.179838062336811E-1   -8.290728827429209E-1    7.473610556067469E-6    4.578899060305487E-7   -7.975397604492335E-6    9.592063605041512E-6   -5.474005074498277E-1   -7.978682037102860E-1
 1.560000000000000E+10  -5.205394285152090E-1   -8.261030628649778E-1   -1.861851409908039E-6   -8.362996969780452E-6    4.527111882420099E-6    6.806406250824561E-6   -5.533637255425595E-1   -7.930540116442759E-1
 1.561000000000000E+10  -5.235361136472823E-1   -8.221089100234629E-1    5.543548158169639E-6   -1.131204113634975E-6   -1.061405936538757E-5   -1.137061504484372E-5   -5.599967678618601E-1   -7.887929231620530E-1
 1.562000000000000E+10  -5.272589267652962E-1   -8.174257410477074E-1    8.770674969544770E-8   -1.759286033975138E-6    5.007828462188893E-6   -1.626589486144760E-5   -5.667599968923930E-1   -7.851551904113492E-1
 1.563000000000000E+10  -5.319726350759882E-1   -8.123509831070479E-1   -1.830212059946545E-5    4.036201687019617E-6   -1.828161554044973E-5    7.117116009839587E-6   -5.732528543614359E-1   -7.824578081750089E-1
 1.564000000000000E+10  -5.379183709543309E-1   -8.073554841110515E-1   -7.146208087100878E-6    1.600316991833348E-5   -1.410619413564927E-5   -7.110343702514088E-6   -5.789099249307379E-1   -7.803348286524455E-1
 1.565000000000000E+10  -5.447188069182531E-1   -8.029419176090411E-1   -1.203805034726902E-5   -1.501943677977200E-5    5.802540118601298E-6    1.727423148127965E-6   -5.837626049282174E-1   -7.783410468352395E-1
 1.566000000000000E+10  -5.524082016148217E-1   -7.990609820931908E-1   -4.739279294295610E-6   -2.057508844475719E-5   -3.766971335808900E-6   -7.613507238037969E-6   -5.878467385208928E-1   -7.760866477042614E-1
 1.567000000000000E+10  -5.599316659519528E-1   -7.960236649766920E-1   -2.918296056586571E-6    1.436392477959442E-5   -3.733922828646684E-5   -1.397097309786180E-5   -5.911529077021529E-1   -7.731654456453327E-1
 1.568000000000000E+10  -5.665867327223367E-1   -7.936864986424009E-1   -1.498144543617946E-5   -2.196688030536529E-5    6.962999373043230E-6    1.567164448739448E-5   -5.941764431300831E-1   -7.694870561426647E-1
 1.569000000000000E+10  -5.721109588226687E-1   -7.918073348031970E-1    7.662615077952786E-6    1.533753618140080E-6   -2.362050662202859E-5   -1.569202080342237E-6   -5.974185582262227E-1   -7.650717864254335E-1
 1.570000000000000E+10  -5.763587066976209E-1   -7.898564132008784E-1    1.202739122603288E-5    2.967080284563532E-5    1.416459295646102E-5    1.458671391263190E-5   -6.012138236990581E-1   -7.599563743832510E-1
 1.571000000000000E+10  -5.794958918375879E-1   -7.873035800720843E-1    1.330768676312289E-5    8.286933002142482E-6    5.982016190240757E-6   -1.706852177532488E-5   -6.058490871360428E-1   -7.543332533463135E-1
 1.572000000000000E+10  -5.820695189448590E-1   -7.840998734212706E-1   -3.764771888720297E-6   -5.935569818085727E-6   -1.004534575231882E-5   -2.117181567863162E-5   -6.113581461458355E-1   -7.488915800080898E-1
 1.573000000000000E+10  -5.846653048381276E-1   -7.798846598900325E-1    1.026128719603838E-6    2.449414996019923E-5    1.118825823487111E-5   -1.431565663779486E-5   -6.174803198337110E-1   -7.438470890860036E-1
 1.574000000000000E+10  -5.877997447377552E-1   -7.749558371973423E-1    1.128060091049327E-5    3.095754927976989E-5   -9.774143433704507E-6    1.991516736950635E-5   -6.240560985881183E-1   -7.395682547073917E-1
 1.575000000000000E+10  -5.919488873900567E-1   -7.694456715323262E-1    1.599972816065178E-5   -1.161068534149160E-5    2.619151888678881E-6    1.864725268243329E-5   -6.303990865639099E-1   -7.360545867517511E-1
 1.576000000000000E+10  -5.974155150633483E-1   -7.637222261831953E-1    1.997552511799418E-5   -1.173791394983783E-5   -1.083329845280880E-5   -1.583970442942038E-5   -6.362709254282359E-1   -7.330626604288467E-1
 1.577000000000000E+10  -6.039202453893914E-1   -7.584614580430828E-1    1.021202499401874E-5    7.863104091322625E-6    7.651042533600560E-6    2.284753240245616E-5   -6.414145788763344E-1   -7.303625670153026E-1
 1.578000000000000E+10  -6.110388512889242E-1   -7.537533440357734E-1    2.513131013126148E-5   -3.738210538184702E-6   -2.514623442868529E-6   -4.619711061327415E-6   -6.455902666404172E-1   -7.276050514194237E-1
 1.579000000000000E+10  -6.182385424070184E-1   -7.498083430684838E-1   -5.339561341557916E-6    1.080978076480691E-5    6.373771547418485E-7    1.226721364663142E-5   -6.490656582198637E-1   -7.244636358966732E-1
 1.580000000000000E+10  -6.250768493049154E-1   -7.466531416975444E-1   -3.630854231124146E-7    6.057314696914641E-8    1.947688370877294E-6   -5.462403123980059E-6   -6.519914020476830E-1   -7.205291383001785E-1
 1.581000000000000E+10  -6.309233269176903E-1   -7.439481497033146E-1   -7.713987170892077E-6   -7.613217040844325E-6    1.480269283412561E-5   -1.317014980445097E-6   -6.549127831019157E-1   -7.158363057199919E-1
 1.582000000000000E+10  -6.355002850227082E-1   -7.413221792847273E-1    5.066878382106073E-6   -3.033781963391138E-6    3.314954797247662E-5    5.022577087669294E-6   -6.582640483832187E-1   -7.105475387868244E-1
 1.583000000000000E+10  -6.390170563488624E-1   -7.385741189297583E-1   -9.762395683639790E-6   -2.026410097383962E-5    8.117535895613977E-6   -1.149097148261222E-5   -6.622917516665563E-1   -7.048161329656931E-1
 1.584000000000000E+10  -6.418351940479983E-1   -7.350553848163094E-1    5.063692228359345E-6    4.600489119583508E-6    2.379889721381688E-7   -8.025544807883806E-6   -6.671417892206387E-1   -6.992602992546584E-1
 1.585000000000000E+10  -6.443205258385984E-1   -7.308815797638628E-1    3.314137047073823E-6    1.044186690324739E-5    1.946538329426510E-5    2.779484136270134E-6   -6.726243682829663E-1   -6.939924068805465E-1
 1.586000000000000E+10  -6.472552508325682E-1   -7.257231032483423E-1   -1.646141657406725E-5   -1.990514835227424E-6   -1.613839077996569E-5   -7.692883767214567E-6   -6.785047211079949E-1   -6.893781247528163E-1
 1.587000000000000E+10  -6.508967963676840E-1   -7.200786235552790E-1   -2.997212145413730E-6    2.467700205378863E-6    3.959839048451959E-6   -1.021763930532993E-5   -6.842529320455265E-1   -6.854323348869821E-1
 1.588000000000000E+10  -6.556367009613557E-1   -7.143435624865304E-1    1.395063099452247E-5   -9.029351676447471E-6   -2.575547898787183E-6    1.806840810536694E-6   -6.898664552846840E-1   -6.819879183672494E-1
 1.589000000000000E+10  -6.616542373368980E-1   -7.087865465569982E-1   -7.779791433768525E-6    2.856846948045086E-6   -6.390919543557473E-6    1.519697695056614E-6   -6.947469065028360E-1   -6.787625127449363E-1
 1.590000000000000E+10  -6.681949442213541E-1   -7.036470756263031E-1   -7.299033563635705E-6    4.919614768610359E-6    8.174342847507628E-6    1.037566558462987E-5   -6.988351843797944E-1   -6.754963273669665E-1
