#  HZ   S   RI   R     50.00 
! Rohde & Schwarz Vector Network Analyzer 
! Rohde-Schwarz,ZNA43-4Port,1332450044101932,2.92
! Created: UTC 4/16/2025, 7:38:31 AM
! freq[Hz]                re:S11                  im:S11                  re:S21                  im:S21                  re:S12                  im:S12                  re:S22                  im:S22
 1.500000000000000E+10  -1.788409067029811E-1   -9.569661930474835E-1   -4.969721586526066E-7   -9.243880272649474E-6    3.342256873016287E-6   -1.944946077053207E-5   -2.182075858041810E-1   -9.446451808496291E-1
 1.501000000000000E+10  -1.845552353837973E-1   -9.531897802789057E-1    1.062622063006510E-5   -2.209487554732513E-5   -1.317656511096594E-5    1.114146475993601E-5   -2.259627600631429E-1   -9.435919407913929E-1
 1.502000000000000E+10  -1.918495926356363E-1   -9.495587901626692E-1   -6.440136972446005E-6    7.613234982953864E-6    2.351255829909680E-6    7.327341781280021E-6   -2.333852782181876E-1   -9.435172017650171E-1
 1.503000000000000E+10  -1.998581006035878E-1   -9.468817097015988E-1   -1.282586711089953E-7    4.337768160970815E-6    1.641955282516833E-5    2.174266340664307E-6   -2.399352682170761E-1   -9.440737235082017E-1
 1.504000000000000E+10  -2.083371323975045E-1   -9.452752202031375E-1    7.811226957677436E-6    1.079517479463703E-5    5.752243780547429E-6   -1.405061410055326E-5   -2.454054745404424E-1   -9.448121451184470E-1
 1.505000000000000E+10  -2.170446461658172E-1   -9.449320346456213E-1    9.350888644460770E-8    2.288490573982189E-6    3.521787652066360E-6   -4.637768567180067E-6   -2.501291036722841E-1   -9.449582747872626E-1
 1.506000000000000E+10  -2.251047498496809E-1   -9.456771504331304E-1    4.500454956702597E-6    5.160117096613493E-6    9.290060007699788E-7   -3.170917345641947E-6   -2.540620524853661E-1   -9.443232173736944E-1
 1.507000000000000E+10  -2.318593102133804E-1   -9.467028919410906E-1   -7.347482325987618E-6    2.616827445698723E-6   -1.011345208658427E-6   -1.074988475141620E-6   -2.578966099857338E-1   -9.424535614439330E-1
 1.508000000000000E+10  -2.372184171716468E-1   -9.478474112628328E-1    3.654166584812610E-5    1.199242337073172E-5   -1.429710022701851E-7    6.351650539537990E-6   -2.620507178499660E-1   -9.395533744672747E-1
 1.509000000000000E+10  -2.411531651338129E-1   -9.480488066106585E-1    8.518760532081042E-6    4.616684877857756E-6    1.759475197016020E-6    2.050544126046605E-5   -2.670486911186904E-1   -9.359662358406678E-1
 1.510000000000000E+10  -2.443928535725252E-1   -9.471047506054215E-1    1.398060464817785E-5    1.574066371088535E-5    1.258828524337209E-5    1.241842897568134E-5   -2.728857407387322E-1   -9.322773680966885E-1
 1.511000000000000E+10  -2.476628348960980E-1   -9.449037160786656E-1    7.337834913014891E-6   -9.604933722743636E-6   -3.997029392892076E-6   -2.024017637424124E-5   -2.798090780749530E-1   -9.288465106132604E-1
 1.512000000000000E+10  -2.514266258590622E-1   -9.414365482742540E-1    1.776782408819361E-5    1.807742600635233E-5    3.183607074992507E-5    1.950010268996975E-5   -2.873444734484928E-1   -9.261677798255189E-1
 1.513000000000000E+10  -2.562859626893829E-1   -9.372586292301898E-1   -1.509679570912263E-6   -4.499653099145023E-6    4.003488108111482E-6   -2.499345389554600E-6   -2.951488625518784E-1   -9.243460272008516E-1
 1.514000000000000E+10  -2.625374966059871E-1   -9.332937868160701E-1    6.611981460741412E-6    6.857813087253519E-6    2.892486898570096E-5   -6.125995782332598E-6   -3.028215631396964E-1   -9.234699971902824E-1
 1.515000000000000E+10  -2.696566173835800E-1   -9.302318200260840E-1   -1.505431926245810E-5    7.014798891906670E-6   -1.439414816527692E-6    7.489205621849634E-6   -3.097182056013211E-1   -9.233664543095652E-1
 1.516000000000000E+10  -2.776412064421613E-1   -9.279089272431935E-1    1.049596775747767E-5    1.201510751183857E-5    2.082682526306039E-6   -8.080779485720098E-6   -3.155151744509434E-1   -9.234375334274092E-1
 1.517000000000000E+10  -2.857230814584569E-1   -9.267567063458948E-1    3.143856835239996E-6    1.429521456742915E-5    1.834298956542005E-5   -3.327408638231452E-5   -3.201227594638287E-1   -9.232271360121383E-1
 1.518000000000000E+10  -2.938610751794402E-1   -9.265964036072089E-1    1.435393884030378E-5    1.603920172029046E-5    1.940679591910620E-5    9.925983741974073E-6   -3.241375898546224E-1   -9.223391511422064E-1
 1.519000000000000E+10  -3.007000532367519E-1   -9.270906089409331E-1    6.929241901927570E-6    1.082247303077213E-5    1.298057272047938E-5    6.090366391360933E-6   -3.277615260646943E-1   -9.203985009108830E-1
 1.520000000000000E+10  -3.064734407066174E-1   -9.274043422677130E-1   -3.104291990439929E-5    3.881512717945819E-6   -2.891796279588058E-6   -2.201093128254717E-5   -3.316241559077081E-1   -9.173232520941297E-1
 1.521000000000000E+10  -3.104730310500333E-1   -9.274079971225682E-1    1.345005253570472E-5   -1.547889242815553E-5    7.798763141633337E-6    1.035560728452976E-6   -3.360385001863963E-1   -9.135069247255559E-1
 1.522000000000000E+10  -3.138271091872288E-1   -9.264237161756613E-1    1.575255912437090E-5    8.670973213973303E-7    6.776508145619504E-6    4.244874896738599E-6   -3.414620221430020E-1   -9.095131211700133E-1
 1.523000000000000E+10  -3.169950814563572E-1   -9.241121284664523E-1   -2.195953165371135E-6   -1.236732847645068E-5   -1.447426382322572E-5   -1.618416882841702E-5   -3.477096635265856E-1   -9.055664752762327E-1
 1.524000000000000E+10  -3.204937278026132E-1   -9.204372433838377E-1    1.185716593850699E-5    1.001054504473406E-5    1.299245864135506E-5   -1.852024177344992E-5   -3.549316482159875E-1   -9.022928507983305E-1
 1.525000000000000E+10  -3.251383452089988E-1   -9.160301091178280E-1   -2.641853899150591E-6    6.965642702880769E-6    1.448544575576287E-5    8.570750224831598E-6   -3.625113902933140E-1   -8.997657831772787E-1
 1.526000000000000E+10  -3.311060931115309E-1   -9.112653583957480E-1   -1.453879930600848E-5   -1.822775370892157E-6    4.826254513003983E-6   -5.657592781198051E-6   -3.699932517627323E-1   -8.980815735089935E-1
 1.527000000000000E+10  -3.383935448547597E-1   -9.070578529857963E-1   -1.862375157443755E-5    1.563077714490840E-6   -1.442101558083524E-5   -1.192455458047420E-6   -3.768628884463399E-1   -8.972690360867772E-1
 1.528000000000000E+10  -3.463877744032978E-1   -9.038204843038160E-1   -4.699165846556536E-6   -7.980373161444992E-6    4.743669445075048E-6   -8.848075186688216E-6   -3.827716844803289E-1   -8.969243265582825E-1
 1.529000000000000E+10  -3.546865825408366E-1   -9.016675876121122E-1    1.027685295325451E-5   -7.784485631130650E-6   -5.303937297478832E-6    1.871005303009518E-5   -3.876855281714262E-1   -8.963737557982273E-1
 1.530000000000000E+10  -3.629000104094793E-1   -9.003583068915264E-1   -1.210781025674455E-5    1.029469137739347E-5   -1.412526948500252E-5    1.186120666330362E-5   -3.918551649552522E-1   -8.951101963984679E-1
 1.531000000000000E+10  -3.705828205647050E-1   -9.003725460964648E-1   -2.887849651200276E-6   -1.095334572661364E-5   -7.099114304560213E-6    1.145834539058743E-5   -3.956630509558003E-1   -8.929927980567200E-1
 1.532000000000000E+10  -3.766303499763259E-1   -9.006872362670507E-1   -6.880615025828011E-6   -6.922208927168428E-6    6.301979735951843E-6    4.482378129399302E-6   -3.994918241804896E-1   -8.896994814522757E-1
 1.533000000000000E+10  -3.811610494220470E-1   -9.009847009162143E-1   -1.175818807368608E-5   -9.602138763551570E-6    2.133195616273058E-5    1.014467468951606E-5   -4.037875617342735E-1   -8.856078192597092E-1
 1.534000000000000E+10  -3.844452687103366E-1   -9.001160759141510E-1    1.594883807217627E-6    1.589909306185155E-5    8.225788379953283E-6   -5.939029255153597E-6   -4.090483919609926E-1   -8.810845941304385E-1
 1.535000000000000E+10  -3.870798416814666E-1   -8.979351086559909E-1    7.265230236506573E-6    1.287100194407402E-5   -1.378709151419617E-5   -2.848878986492716E-6   -4.150936713244903E-1   -8.766522526884634E-1
 1.536000000000000E+10  -3.899519264124773E-1   -8.943494558282166E-1   -1.544113452475386E-5    5.619966052742682E-7   -5.011568946972923E-6    5.717433183722632E-6   -4.221657752736387E-1   -8.728887802062096E-1
 1.537000000000000E+10  -3.938580594411518E-1   -8.896593776782903E-1   -1.007452323017061E-5   -1.406687792850736E-5    5.361412524745832E-6   -2.584863649149634E-5   -4.295826334302690E-1   -8.698857276982942E-1
 1.538000000000000E+10  -3.990916601049881E-1   -8.844639846880011E-1    1.809025681059020E-5   -6.429461454646925E-6    1.654895836600839E-5   -4.621149849422947E-6   -4.371516170282785E-1   -8.677082632891485E-1
 1.539000000000000E+10  -4.058038130039900E-1   -8.797472752501008E-1   -1.219315793901222E-5   -1.799131825356940E-5    7.667795277328100E-6   -1.850711654481094E-5   -4.441253092730400E-1   -8.662825898324612E-1
 1.540000000000000E+10  -4.135209951744522E-1   -8.755882050308028E-1    5.661814845053240E-6    4.038570294014034E-6   -9.779931557984456E-6   -4.755345348387132E-6   -4.501553210162237E-1   -8.653491654409459E-1
 1.541000000000000E+10  -4.220495194630753E-1   -8.723748865398777E-1   -6.976784412370648E-6    3.745956956625552E-6   -2.229420770612171E-5   -5.734350082551722E-6   -4.552110986898925E-1   -8.643081295261714E-1
 1.542000000000000E+10  -4.305203530292984E-1   -8.702008277994526E-1   -7.478859343826188E-6   -1.464367944161691E-6   -1.042630051508756E-6    1.742518608674647E-7   -4.595338949272519E-1   -8.628600976538138E-1
 1.543000000000000E+10  -4.384045589356549E-1   -8.692677402986598E-1   -5.254430131539547E-6   -2.140432632322722E-5    2.644828161139389E-5   -8.744544810482689E-6   -4.631031378459584E-1   -8.604874611138611E-1
 1.544000000000000E+10  -4.448391975870288E-1   -8.688070896379250E-1   -2.659869991798089E-6    1.202479238805913E-6   -1.400088515005881E-5    6.415685538613869E-6   -4.665118789476971E-1   -8.570163058996205E-1
 1.545000000000000E+10  -4.496527275704671E-1   -8.685963616717035E-1   -4.101066003234491E-6   -6.678954619677959E-6    1.785878486232209E-5    3.196896207836434E-6   -4.704035931544996E-1   -8.527594526239208E-1
 1.546000000000000E+10  -4.531164019498110E-1   -8.676560277530027E-1   -1.027872047992176E-5    3.152903023099153E-6    2.055450210626611E-6   -8.735775259420976E-6   -4.753280712593662E-1   -8.478600207775235E-1
 1.547000000000000E+10  -4.553826483657424E-1   -8.655495918749383E-1    2.282084655545291E-6    1.997864669968363E-5   -2.717184050450925E-7   -6.910222008750551E-6   -4.809922024229342E-1   -8.428841070149787E-1
 1.548000000000000E+10  -4.575600258454052E-1   -8.622712236298550E-1    1.468464256658612E-6    1.544047572478830E-5    3.870566361966128E-7   -2.764178095862443E-6   -4.874025572183640E-1   -8.383575165115423E-1
 1.549000000000000E+10  -4.604247643060168E-1   -8.578987304271481E-1    1.485271732006239E-6   -1.991890402331419E-6   -4.727477124464007E-6   -2.192775026873468E-5   -4.943291164608852E-1   -8.346316081676414E-1
 1.550000000000000E+10  -4.644766625126072E-1   -8.525874129288801E-1    2.864541323239658E-6   -1.954637694062186E-5    1.292066633741402E-5   -5.707624574965138E-6   -5.014215640324415E-1   -8.318145686697163E-1
 1.551000000000000E+10  -4.702166401986794E-1   -8.472040525945355E-1   -1.044776775163827E-5    7.761228930063932E-6   -2.259978090760615E-5    8.388903473150224E-6   -5.081176256717278E-1   -8.300400634789014E-1
 1.552000000000000E+10  -4.773250190313527E-1   -8.422449427522873E-1    1.919844069086542E-5    3.142909074906267E-5   -7.554439896720652E-6   -5.909435962116382E-6   -5.139504976903242E-1   -8.289133303353968E-1
 1.553000000000000E+10  -4.854222532252038E-1   -8.379547321266485E-1    2.713241081749230E-5   -1.969317346936604E-5    5.571651791369683E-6    3.870489063052546E-5   -5.188291166795788E-1   -8.276111953483950E-1
 1.554000000000000E+10  -4.938355508045818E-1   -8.349461901287295E-1   -1.337068602062159E-5   -3.864783211105046E-6   -3.867588762793742E-6   -3.900589717169994E-7   -5.228498590866889E-1   -8.258588939315952E-1
 1.555000000000000E+10  -5.018189607645199E-1   -8.329097850095413E-1   -9.193443268219381E-6    7.014401673777327E-6    6.626073294442799E-6   -5.051587561954023E-6   -5.262706735271201E-1   -8.232393938698992E-1
 1.556000000000000E+10  -5.088443478254967E-1   -8.315800861101847E-1    5.693316320046168E-6   -9.815213332289405E-6   -6.969071161181285E-6   -3.415811271651882E-6   -5.295844531244890E-1   -8.194271488986888E-1
 1.557000000000000E+10  -5.144243057751674E-1   -8.305028722459801E-1   -1.910730433723174E-5   -1.109912524552479E-5   -3.398357546993502E-6    1.281010170582535E-5   -5.333946693929807E-1   -8.146906893339257E-1
 1.558000000000000E+10  -5.183081964726715E-1   -8.293307523741795E-1    8.205105207580265E-6    5.324012865000017E-6   -1.407499857276421E-5   -6.834147707947953E-6   -5.378279986354694E-1   -8.094659593257256E-1
 1.559000000000000E+10  -5.210155141426003E-1   -8.271792302484353E-1    9.364815219684114E-6    1.317161437516049E-6    2.689351773855481E-6   -1.046261351236180E-5   -5.432108137327799E-1   -8.039639251039303E-1
 1.560000000000000E+10  -5.231461627116880E-1   -8.241397890922065E-1    4.541904634422153E-6   -3.863908154932092E-5    1.042022241713597E-5    1.113378390802627E-6   -5.494430098070058E-1   -7.988705314772904E-1
 1.561000000000000E+10  -5.257453240535995E-1   -8.198533256881431E-1   -1.861836184194962E-5    1.446996108682418E-5    1.325999220045915E-5   -1.809114096931912E-5   -5.564453270179517E-1   -7.945642074371950E-1
 1.562000000000000E+10  -5.292319899630524E-1   -8.148320747436353E-1   -1.088929895033856E-5    6.522681148139814E-6    2.274728517866206E-6    1.487748011937728E-5   -5.635827732673402E-1   -7.911202268617499E-1
 1.563000000000000E+10  -5.339264087927899E-1   -8.094339594868430E-1    3.548543968140446E-6    2.701806769267799E-6    5.353475579667764E-6   -4.984701761207619E-6   -5.704405096190942E-1   -7.887091957134287E-1
 1.564000000000000E+10  -5.400108051202187E-1   -8.041792310087598E-1   -8.415826988813682E-6    8.130084529436282E-6    1.777310620679152E-5    1.086962541023796E-5   -5.762490471112894E-1   -7.869634984813022E-1
 1.565000000000000E+10  -5.471955396460463E-1   -7.995840964353587E-1   -3.889446345659367E-6    4.760870770186618E-6    6.660800204992071E-6   -1.627071106366362E-5   -5.810960372125580E-1   -7.854180983782105E-1
 1.566000000000000E+10  -5.552290730804375E-1   -7.956944516219494E-1    9.901477625373375E-6    8.682049634087933E-6    9.682588371740568E-6    7.819851208191836E-7   -5.850005745229723E-1   -7.835443864637385E-1
 1.567000000000000E+10  -5.631402476541656E-1   -7.929124054957837E-1    1.242728865348842E-5    6.053257647907654E-6   -1.646869448922753E-5   -3.386483890955969E-5   -5.878974606389485E-1   -7.808228477017478E-1
 1.568000000000000E+10  -5.699851522056345E-1   -7.908961018323070E-1   -3.616538378230474E-6   -9.060183474839933E-6   -1.174843890862413E-5    3.765653290340343E-6   -5.906673171596896E-1   -7.772277760809212E-1
 1.569000000000000E+10  -5.755531640685084E-1   -7.893123679827861E-1   -7.854381123515383E-6   -1.021945649800556E-6    9.286506108327751E-6    7.114522570856076E-6   -5.936414214001853E-1   -7.726199327852672E-1
 1.570000000000000E+10  -5.795908903250543E-1   -7.876090698994180E-1   -1.448140993512364E-5    1.000939475693615E-5    3.131953429403914E-6    1.811998910393359E-6   -5.973004605219950E-1   -7.671142054936705E-1
 1.571000000000000E+10  -5.823580489310505E-1   -7.852386547241285E-1   -1.984852578402070E-5    1.795797147536062E-6    1.188422535715498E-6    7.316142258005413E-6   -6.020669048578469E-1   -7.611122050693457E-1
 1.572000000000000E+10  -5.844473105341084E-1   -7.819375442422533E-1   -2.364428674339885E-6    5.358915489433847E-6   -2.075437728378314E-5   -9.578413088501111E-6   -6.077848176686922E-1   -7.553444314891569E-1
 1.573000000000000E+10  -5.866222587372999E-1   -7.775138532347302E-1   -2.540282552888254E-5    1.519180343322121E-6   -9.062032922380638E-7    1.180242006453081E-6   -6.143278178734825E-1   -7.501258784151609E-1
 1.574000000000000E+10  -5.895745516042948E-1   -7.723614578197823E-1   -1.441871003591309E-5    9.062868524775625E-6    3.583199767337397E-6   -5.728331357740469E-6   -6.213566187304063E-1   -7.458553835831663E-1
 1.575000000000000E+10  -5.936052169145218E-1   -7.664794763161458E-1    4.133113395539736E-6    1.915335790797987E-5    2.088428271024722E-7    3.859432008262899E-5   -6.280489408689094E-1   -7.425711788462760E-1
 1.576000000000000E+10  -5.992535217442693E-1   -7.603880021966828E-1   -5.804549280223645E-6    6.588731893675647E-6    5.208495338961386E-6    1.025428694739993E-6   -6.341819093717073E-1   -7.399596253253306E-1
 1.577000000000000E+10  -6.060352691298437E-1   -7.549068624185084E-1    1.831527528880135E-5    4.443643386845002E-6    8.920547603927201E-6   -2.180131403597914E-6   -6.394191888052517E-1   -7.377085085007966E-1
 1.578000000000000E+10  -6.135034312043194E-1   -7.501352517048092E-1   -1.554448068687752E-5    1.310013175775016E-5    3.001845108071694E-6   -9.684066904252276E-6   -6.434613431163161E-1   -7.353347083635096E-1
 1.579000000000000E+10  -6.211099124171314E-1   -7.464060568955899E-1    1.782893948936531E-6   -1.804824389854918E-5   -1.309495122777809E-6    5.636980162159443E-6   -6.467098878230414E-1   -7.324058695193560E-1
 1.580000000000000E+10  -6.281454192967516E-1   -7.435482422250292E-1   -1.462074259044127E-5    1.777415191930481E-6   -1.811750471640896E-5   -2.151076155948417E-5   -6.494019943683711E-1   -7.285454215591211E-1
 1.581000000000000E+10  -6.340289290523372E-1   -7.411609410357245E-1   -1.473360718937348E-5   -2.671352056279079E-6   -2.614541184106663E-5   -5.723452139741623E-6   -6.520460404806709E-1   -7.236281101744658E-1
 1.582000000000000E+10  -6.383907006272568E-1   -7.388346925767371E-1   -2.141317183219400E-5    2.181796451122949E-5   -3.154877069730948E-6   -6.541831753482386E-7   -6.551765393157458E-1   -7.179338222301802E-1
 1.583000000000000E+10  -6.416150058083626E-1   -7.362173306373970E-1   -8.765017769770234E-6    6.918166010121234E-6    8.610952805943425E-7    9.082306211285109E-6   -6.591144804244817E-1   -7.118444115095998E-1
 1.584000000000000E+10  -6.439614496539637E-1   -7.327925742378526E-1    3.024045711973715E-6    3.527540751263026E-6   -3.851871316703165E-7   -3.809741797745165E-6   -6.640611981952725E-1   -7.058496343675882E-1
 1.585000000000000E+10  -6.460434745409058E-1   -7.284151126226953E-1   -2.226111078045216E-5   -1.451254027701701E-7   -8.175188285681562E-6    5.750737046038392E-6   -6.698125831097637E-1   -7.003204282381937E-1
 1.586000000000000E+10  -6.486638200595384E-1   -7.230703834059475E-1    1.174948164633873E-5    2.150627431974407E-5   -1.440861084542980E-5   -5.987923298182335E-6   -6.760801861857245E-1   -6.956476746715357E-1
 1.587000000000000E+10  -6.522268208968184E-1   -7.170197597890273E-1   -1.817627896522122E-5    1.136283562605732E-6    1.128923791313895E-5   -9.132556883965003E-6   -6.822776436002271E-1   -6.918457753971484E-1
 1.588000000000000E+10  -6.570800626290805E-1   -7.108913163906448E-1   -5.353648388267478E-6    5.347567193380185E-6   -7.859547992708681E-6   -8.963406879447718E-6   -6.882237897147195E-1   -6.886241975483092E-1
 1.589000000000000E+10  -6.633400496696401E-1   -7.051469173094281E-1   -6.777625959982142E-6   -9.795565494048832E-6   -1.508299181684853E-5    2.473052400862632E-5   -6.933018769328738E-1   -6.856439931067332E-1
 1.590000000000000E+10  -6.703406684911883E-1   -6.998883781317994E-1    1.083659999118384E-5   -5.533244732797370E-6    4.896667270918021E-7    1.820505388605442E-5   -6.973992203905601E-1   -6.826774422570983E-1
