#  HZ   S   RI   R     50.00 
! Rohde & Schwarz Vector Network Analyzer 
! Rohde-Schwarz,ZNA43-4Port,1332450044101932,2.92
! Created: UTC 4/16/2025, 7:21:09 AM
! freq[Hz]                re:S11                  im:S11                  re:S21                  im:S21                  re:S12                  im:S12                  re:S22                  im:S22
 1.500000000000000E+10  -1.918589078267049E-1   -9.487142656044807E-1    2.607697171051376E-7    5.725848008045611E-6    1.084393936987124E-6    2.018608862599407E-5   -2.347365205249834E-1   -9.384697948273221E-1
 1.501000000000000E+10  -1.982139888791380E-1   -9.465227917822576E-1   -1.769582202020565E-6    1.438501172387646E-5   -4.496135117786475E-6    2.243261204454728E-5   -2.408966086879038E-1   -9.369152839360720E-1
 1.502000000000000E+10  -2.051245141990539E-1   -9.443893819710806E-1    4.338939688630468E-6   -2.569653255524346E-6   -1.200330356068866E-5   -3.520992209835924E-7   -2.471503817617704E-1   -9.354939399542359E-1
 1.503000000000000E+10  -2.121040596518374E-1   -9.427941005330179E-1    1.217050558732138E-5    6.363343217277571E-6    3.207747787574967E-5   -2.284728996178233E-5   -2.530381297534443E-1   -9.343372546704080E-1
 1.504000000000000E+10  -2.189736557708093E-1   -9.414812981249052E-1   -6.381295357817855E-6   -4.357286047062298E-6    1.069308620433448E-5    1.109627768242807E-6   -2.587218200343100E-1   -9.332053607810598E-1
 1.505000000000000E+10  -2.258001624424487E-1   -9.405710778870878E-1   -1.540149044858604E-5   -1.297072494038068E-5    8.461456307211335E-6   -8.722338802603769E-6   -2.643394385438124E-1   -9.318668587526603E-1
 1.506000000000000E+10  -2.322686015603031E-1   -9.400698061183118E-1   -8.850491707429064E-6    1.832028761476833E-5    2.813974383936789E-5   -9.069356950314501E-6   -2.697271342150592E-1   -9.304270628826791E-1
 1.507000000000000E+10  -2.381307725476647E-1   -9.394484927262753E-1    1.537753739506815E-5    5.812854685167862E-6   -2.551647304358935E-6    1.433936834752470E-5   -2.751456003916808E-1   -9.287041807022032E-1
 1.508000000000000E+10  -2.433951269293681E-1   -9.388485237307219E-1    6.865052702249861E-6   -1.799723999722669E-5    2.383346523238633E-5    1.657589088326244E-5   -2.805464503044546E-1   -9.266897271687023E-1
 1.509000000000000E+10  -2.481722836279555E-1   -9.378816552986811E-1    6.690843126677186E-7    1.867187977559390E-6   -2.039037146886851E-5    7.287034170122576E-6   -2.862811273948820E-1   -9.246902368300318E-1
 1.510000000000000E+10  -2.528171881433926E-1   -9.364314539566105E-1   -1.782209536301759E-5   -3.337993264368457E-6    2.070739267317214E-5   -1.645107973560740E-5   -2.919698887791553E-1   -9.225880319429866E-1
 1.511000000000000E+10  -2.577121106886475E-1   -9.345677040293210E-1   -3.293175072340964E-6   -7.397663684894260E-6   -6.501939638633480E-6   -1.029607409412062E-5   -2.979406014621142E-1   -9.205402566441520E-1
 1.512000000000000E+10  -2.629497429353649E-1   -9.321581154595833E-1    4.985488515234849E-6    1.165116526816903E-5    6.080166173005594E-6    1.893830615440353E-5   -3.039938839338163E-1   -9.185781251108598E-1
 1.513000000000000E+10  -2.687209979176904E-1   -9.293800762899586E-1    1.146291936277096E-5    1.076712607405092E-5    6.186623134003408E-7    1.153434429733261E-5   -3.099948917839170E-1   -9.166206449063115E-1
 1.514000000000000E+10  -2.750692196735141E-1   -9.268819074995166E-1    6.035393288609687E-6    2.285808113231397E-6   -3.734487428452278E-6   -1.905389768661194E-6   -3.160298248277650E-1   -9.147507435368941E-1
 1.515000000000000E+10  -2.814512794986717E-1   -9.248868584333123E-1   -1.788325986803375E-5   -4.744108423805206E-7   -6.144772815679937E-7   -1.887477884088538E-6   -3.219578663392597E-1   -9.131348866117635E-1
 1.516000000000000E+10  -2.881115637748949E-1   -9.229834912953004E-1   -2.797422300675929E-6    1.103280884892235E-5    2.174772377769664E-5    1.066711466792443E-5   -3.274753455207467E-1   -9.114219017250169E-1
 1.517000000000000E+10  -2.945112836418269E-1   -9.213840137616927E-1   -1.562028936392336E-6    2.479808365801541E-6   -2.366900391924803E-5   -9.761217665142174E-10  -3.327432257358885E-1   -9.097146574493519E-1
 1.518000000000000E+10  -3.011325855185700E-1   -9.200734563348759E-1   -1.210898221550714E-5   -6.457016411498007E-6   -4.033346167530334E-6   -4.546207556746395E-6   -3.380698746798943E-1   -9.078620801373333E-1
 1.519000000000000E+10  -3.070749591999465E-1   -9.190264207311117E-1    6.883596357934550E-6    5.002641872117104E-6   -3.148591742477396E-6    1.152953546284165E-5   -3.433166586798263E-1   -9.056837851839399E-1
 1.520000000000000E+10  -3.126206953765639E-1   -9.177670634906259E-1    1.996716786147982E-5   -1.335303719238708E-5   -3.307994334974983E-5   -9.202799548890531E-7   -3.487047109568891E-1   -9.031179632949217E-1
 1.521000000000000E+10  -3.173451083907522E-1   -9.165459424988317E-1    1.495347160945383E-7   -2.476010776606503E-6    1.209421477657202E-5   -1.570622495563985E-5   -3.540934190109721E-1   -9.004865411118982E-1
 1.522000000000000E+10  -3.220294303755529E-1   -9.149419099909283E-1   -1.096920105730519E-5    2.461074213473548E-6    3.664205791169469E-6    1.718743920703279E-5   -3.598020385021699E-1   -8.978717752878380E-1
 1.523000000000000E+10  -3.267764235317026E-1   -9.127845675883250E-1   -1.298233471810458E-5   -5.768884423610083E-6    1.317206688524241E-5    1.085798378234543E-5   -3.655630641646707E-1   -8.952078352493306E-1
 1.524000000000000E+10  -3.317071285948938E-1   -9.100862317918827E-1    9.071420067188909E-6   -3.952755523847014E-6    2.486843204625926E-5   -5.233862013080739E-6   -3.715619120094068E-1   -8.927709391746366E-1
 1.525000000000000E+10  -3.373258820653615E-1   -9.071117087022672E-1    6.699468982900102E-6    1.302922429351748E-5    1.745681422005912E-5    3.534597247601346E-6   -3.775725175672585E-1   -8.903153525958658E-1
 1.526000000000000E+10  -3.434491083507182E-1   -9.038648064163838E-1    1.117020402376610E-5   -7.547261777422115E-6    1.348164618424030E-5   -3.717383809170169E-6   -3.835856633731743E-1   -8.879455513028024E-1
 1.527000000000000E+10  -3.499523009398170E-1   -9.009570709685634E-1   -2.535815263018874E-6   -6.264694232646363E-6    2.810598886251318E-5    6.356339489487804E-6   -3.893457453515278E-1   -8.858578834125624E-1
 1.528000000000000E+10  -3.564708609274283E-1   -8.983735661121732E-1    4.263298596321706E-6    3.099191028464844E-6   -1.398350456573091E-5    9.027655651332084E-6   -3.948370281201158E-1   -8.838391681071983E-1
 1.529000000000000E+10  -3.630210913102100E-1   -8.959499880970155E-1   -3.747935488987359E-6    1.231247387323123E-5    1.926207785856920E-7   -3.762291087270582E-7   -4.000715351546369E-1   -8.818215601732615E-1
 1.530000000000000E+10  -3.694383622891061E-1   -8.937036652628173E-1   -1.676573374927413E-6   -1.192386780843382E-6   -1.478040356061675E-5   -6.814177923797607E-6   -4.052036257230154E-1   -8.794852343393599E-1
 1.531000000000000E+10  -3.759300564157265E-1   -8.921828566141420E-1    2.007317542231622E-6    3.404145339167419E-7   -7.010493201588212E-6    7.537565554822011E-6   -4.103045723626309E-1   -8.770727166529904E-1
 1.532000000000000E+10  -3.815889458288024E-1   -8.907591707980054E-1   -6.367930376698937E-6   -7.918629379745738E-6   -1.065539921625925E-5    6.684632322533541E-6   -4.154371879820361E-1   -8.742812329212739E-1
 1.533000000000000E+10  -3.865448715433208E-1   -8.896156861996803E-1   -3.943197919954081E-6    3.144839480520811E-7   -1.939784075702208E-6    2.206857554026634E-5   -4.207922552115901E-1   -8.712111746649772E-1
 1.534000000000000E+10  -3.910718366369288E-1   -8.879048994995464E-1   -7.881634132008086E-6   -3.176211806768470E-6   -1.013548089813485E-5   -7.346311609553025E-6   -4.263133464517355E-1   -8.680843671795397E-1
 1.535000000000000E+10  -3.953614889638616E-1   -8.857436500564035E-1   -7.373514314273175E-6    2.963461394979047E-6    7.895602074112798E-6    2.747466808044733E-6   -4.320353356153301E-1   -8.650170449445781E-1
 1.536000000000000E+10  -3.998587761485631E-1   -8.829216497298161E-1   -1.058814708299698E-5    2.033575894450313E-5    3.392553026502046E-6   -6.219667834101070E-6   -4.380413878120561E-1   -8.620046967511916E-1
 1.537000000000000E+10  -4.049082830587963E-1   -8.796066097709653E-1   -8.643044764060662E-7    4.563412072120147E-6   -4.467745505898133E-6   -1.096028344894998E-5   -4.439445499409147E-1   -8.591332614296998E-1
 1.538000000000000E+10  -4.104719349620078E-1   -8.759391406257596E-1   -1.237269048409613E-6    1.364875306887189E-5   -1.189687359406536E-5    1.450997785034587E-6   -4.499623175927328E-1   -8.562921428507611E-1
 1.539000000000000E+10  -4.166185370442141E-1   -8.725780863540120E-1    5.438682811015419E-6   -2.048613702346216E-5   -4.373305683913764E-6   -5.658222732118491E-8   -4.557279168715738E-1   -8.537104164059279E-1
 1.540000000000000E+10  -4.229713262914672E-1   -8.693296011829160E-1    3.858001069603740E-6    7.975836332305866E-6    6.189936986185192E-6    2.167232017263973E-5   -4.611227931957439E-1   -8.512653721266287E-1
 1.541000000000000E+10  -4.296857238790326E-1   -8.662019042711016E-1    2.686657049568759E-5   -9.283804485464023E-6    4.589939202370300E-6    2.184081054887120E-5   -4.663197520812279E-1   -8.487633795411769E-1
 1.542000000000000E+10  -4.363683323552997E-1   -8.632656637838589E-1   -2.160180215689442E-5   -1.635186336024593E-5   -8.967828009803487E-6    6.317793584437066E-6   -4.714122083416952E-1   -8.462956975697024E-1
 1.543000000000000E+10  -4.429226695478135E-1   -8.609473085610339E-1   -9.444213270985673E-6    1.383871182667315E-5    1.224368230779204E-5   -2.216046799214065E-5   -4.762548791667963E-1   -8.435474539167063E-1
 1.544000000000000E+10  -4.488599494500556E-1   -8.587251924142412E-1   -1.141013095759871E-5   -2.263914400130939E-5    1.120136674318138E-6   -2.570087583353930E-6   -4.811038035624201E-1   -8.404110468871867E-1
 1.545000000000000E+10  -4.541149150702407E-1   -8.569122874249014E-1    1.173797460605307E-5   -1.784047681811080E-5   -2.224120352098970E-5   -1.776034220975265E-5   -4.859557370256105E-1   -8.370885885445420E-1
 1.546000000000000E+10  -4.586715325442068E-1   -8.549087537840837E-1    4.278925386087776E-6    4.052281053583108E-6    7.029898008348419E-6   -2.858481351161693E-5   -4.913205118773109E-1   -8.336355104816607E-1
 1.547000000000000E+10  -4.627683187914655E-1   -8.526012364306778E-1    6.793527143478265E-6   -1.526213094984388E-5    6.537566942978237E-6    7.653001642025257E-6   -4.965910049153509E-1   -8.299761314368730E-1
 1.548000000000000E+10  -4.667423207532494E-1   -8.498226518701782E-1   -9.165611591833514E-6   -1.969747687172472E-6   -4.980568221234543E-6   -1.066019035177136E-5   -5.020955502576087E-1   -8.263921082555499E-1
 1.549000000000000E+10  -4.710328119779995E-1   -8.466319631178723E-1    4.943101685378139E-6   -4.118857175380412E-6    2.402393890428318E-5   -6.804129761946239E-6   -5.076946488582655E-1   -8.229335414158490E-1
 1.550000000000000E+10  -4.756930032331464E-1   -8.429228108908879E-1    3.245729624952548E-6    5.015645311711041E-6   -9.690680810659429E-6   -2.027899135381084E-6   -5.133876678411878E-1   -8.196623411658334E-1
 1.551000000000000E+10  -4.811395495111407E-1   -8.391096349645152E-1   -7.786936194264288E-6   -9.299974394276169E-6    2.035155443094523E-5   -2.470260367287744E-5   -5.189831020485360E-1   -8.166611177079056E-1
 1.552000000000000E+10  -4.869537966943796E-1   -8.353166270241654E-1   -2.720537841581792E-6    1.171977306176909E-5    6.425083777300526E-6    5.701410218910049E-6   -5.242513486675040E-1   -8.138779989035764E-1
 1.553000000000000E+10  -4.932575378199344E-1   -8.315613367332646E-1    3.590589831024957E-6    1.532086719466359E-5   -1.584877534667135E-5    8.507411127025094E-6   -5.293515820805359E-1   -8.109680240260571E-1
 1.554000000000000E+10  -4.996478482678947E-1   -8.280997610721953E-1   -3.285151337773014E-6    1.212290435624163E-5    4.517586187659325E-6    1.557649753427476E-5   -5.341208823039110E-1   -8.079662621447220E-1
 1.555000000000000E+10  -5.059618878444579E-1   -8.249974428818927E-1    3.024983881902820E-6   -7.876491105409959E-6    3.585897127210326E-6   -1.972802349153377E-5   -5.387499501068873E-1   -8.047222811280936E-1
 1.556000000000000E+10  -5.120946247179378E-1   -8.221503757802198E-1    1.085361937617017E-5    1.153276792423939E-5   -1.285703404003607E-5   -1.399591976653881E-5   -5.434184622104604E-1   -8.012782460179045E-1
 1.557000000000000E+10  -5.176168662599095E-1   -8.194632185993167E-1   -1.308813059104486E-5   -1.411327346123075E-5   -3.886207448419650E-6    1.927920813006865E-5   -5.482479091466429E-1   -7.974942814744117E-1
 1.558000000000000E+10  -5.224682771207055E-1   -8.170095089208049E-1    9.186730506434682E-6   -1.269276322314703E-5    8.909608592923329E-6    2.253418393589643E-5   -5.531366013395500E-1   -7.935855735370502E-1
 1.559000000000000E+10  -5.267522502308898E-1   -8.142614748341310E-1    4.239551823300526E-6   -1.775007520287251E-5   -2.223377690508223E-6    6.027220361953957E-6   -5.583004820169192E-1   -7.894236694687361E-1
 1.560000000000000E+10  -5.306964990410070E-1   -8.113225623980624E-1   -1.479171859955692E-5   -1.542282833069769E-5    3.038510009092533E-6    8.097206157490239E-6   -5.635740114870352E-1   -7.854343381776531E-1
 1.561000000000000E+10  -5.348950989597411E-1   -8.078948322049633E-1    9.362295242071482E-6    3.892784858203834E-6    5.129883258159963E-6    1.273920204518040E-5   -5.691812171347169E-1   -7.814502172941635E-1
 1.562000000000000E+10  -5.393895997807712E-1   -8.041435100191920E-1    5.536433009469453E-7    1.922297833264245E-6    1.998643864249839E-5    3.418034366390115E-6   -5.747129847782976E-1   -7.776022087752948E-1
 1.563000000000000E+10  -5.441283635061880E-1   -8.000442546057278E-1    1.404629526033771E-5   -6.373502906350933E-6   -8.118133526833187E-6   -5.352931565854872E-6   -5.802001312307786E-1   -7.740520152212529E-1
 1.564000000000000E+10  -5.493377227963736E-1   -7.958804461623197E-1   -1.034104026302426E-5   -2.184249672255941E-7   -1.366248129670563E-6    5.001231712111165E-6   -5.852842481086303E-1   -7.707112377120849E-1
 1.565000000000000E+10  -5.548676900668561E-1   -7.917805740450415E-1    1.467075421170042E-5    9.478920046939892E-6   -9.730866798493137E-6    1.153778528078003E-5   -5.901859364060004E-1   -7.674211069737313E-1
 1.566000000000000E+10  -5.610662076621377E-1   -7.876415033753207E-1    1.048686562002518E-5   -2.125745074264707E-5   -3.067533668929789E-5    3.091191763455793E-6   -5.948372917374463E-1   -7.641273151979172E-1
 1.567000000000000E+10  -5.672213473640928E-1   -7.839064980651386E-1   -9.140784250996745E-6    4.066496986441817E-6   -5.648894753835612E-7   -6.295432561042168E-6   -5.991537918873912E-1   -7.606073301726699E-1
 1.568000000000000E+10  -5.730390850319623E-1   -7.805074531990492E-1    8.710914916150995E-6   -1.409559002980284E-5   -9.906467185602129E-6   -7.974045430388238E-7   -6.034776351795350E-1   -7.569178399324451E-1
 1.569000000000000E+10  -5.783489089027405E-1   -7.774119365960109E-1   -1.532284021725748E-5    4.170570480448600E-6    1.830957471891832E-5    2.109568838785182E-6   -6.077313269437331E-1   -7.529680216666742E-1
 1.570000000000000E+10  -5.831252248029997E-1   -7.744901202908531E-1    5.684997921440394E-6    5.769271132642687E-6    1.559411744290516E-5   -1.943311348275012E-5   -6.121324721346666E-1   -7.487696644901213E-1
 1.571000000000000E+10  -5.873398778683814E-1   -7.713499710249392E-1    2.622768340508767E-5   -3.370657516963320E-5   -5.425077753062891E-6    4.071355445524383E-6   -6.167437282481182E-1   -7.442985605337753E-1
 1.572000000000000E+10  -5.912933276042810E-1   -7.681273157102307E-1   -6.856714243219714E-6    8.785716898796173E-6   -1.556950526455223E-5    1.045367557416731E-5   -6.216352323205476E-1   -7.398351000595713E-1
 1.573000000000000E+10  -5.951705225731324E-1   -7.644757150797087E-1    2.273383185101665E-5    5.010015733186447E-6    9.949129223282532E-6   -2.151867100202426E-5   -6.267725298430809E-1   -7.352876397244275E-1
 1.574000000000000E+10  -5.991382534459542E-1   -7.605156958260088E-1   -5.632998891281743E-6    1.349109010045469E-5   -8.974882775266306E-6    4.185488853304732E-6   -6.320479921581366E-1   -7.310553221639617E-1
 1.575000000000000E+10  -6.033875315097933E-1   -7.561837553885447E-1   -6.499696626811827E-6   -1.619742250081204E-5   -1.691916990043661E-5   -2.771995665656412E-6   -6.372233242141923E-1   -7.270045012850024E-1
 1.576000000000000E+10  -6.082747056502433E-1   -7.514391984922113E-1   -5.824418549122337E-6    3.273459038458983E-6    8.175834996575806E-6   -1.669611167229394E-5   -6.423044619117493E-1   -7.229469697139240E-1
 1.577000000000000E+10  -6.135838805825696E-1   -7.466724438909076E-1    1.290081542460411E-5    1.097290104161541E-5   -8.744621871868345E-6    1.151277781783139E-5   -6.471720400356636E-1   -7.190041226514884E-1
 1.578000000000000E+10  -6.192746753749695E-1   -7.420100733577701E-1    3.074498496740912E-6    7.777764002907044E-6    9.042089626728632E-6   -5.765038960914722E-6   -6.515903050292583E-1   -7.151838637683691E-1
 1.579000000000000E+10  -6.250806429035997E-1   -7.375616317347065E-1   -1.179388281123119E-5    3.209025920293083E-7   -7.706170257460866E-6    1.497026222874874E-5   -6.558504484115557E-1   -7.113288935674811E-1
 1.580000000000000E+10  -6.308868426551025E-1   -7.334484697436069E-1   -1.269432072727989E-5   -7.333166150285092E-6   -4.462886361206710E-6    3.315226486079441E-6   -6.599384766222965E-1   -7.072823661637241E-1
 1.581000000000000E+10  -6.363095996988577E-1   -7.295988353610391E-1   -6.893443085114572E-6   -5.931210474718921E-6   -1.200725637957067E-5    1.793093740833930E-6   -6.639013067020851E-1   -7.030649753038897E-1
 1.582000000000000E+10  -6.411186317991288E-1   -7.259637112612062E-1    1.225897987766688E-5   -9.832979968046869E-6    7.728914719151829E-6    7.121341217048301E-6   -6.679129763350778E-1   -6.985918338069833E-1
 1.583000000000000E+10  -6.455576530638155E-1   -7.225065408905955E-1    2.116579018139662E-5   -6.584792935966201E-6    9.996322591086268E-6   -2.170802764548290E-6   -6.721198658611630E-1   -6.940240235459307E-1
 1.584000000000000E+10  -6.495673785425727E-1   -7.188981749909648E-1   -2.826152886655459E-5   -1.724809901399850E-5    1.105842698963530E-5   -1.813551309337059E-5   -6.764846455815781E-1   -6.894397721313401E-1
 1.585000000000000E+10  -6.532796812722067E-1   -7.150869310408703E-1    4.958107450976953E-7   -8.146951695108226E-6    1.828734551049216E-5    2.548102930603483E-5   -6.809633843538915E-1   -6.849202909818333E-1
 1.586000000000000E+10  -6.569904809044995E-1   -7.107816195647918E-1   -2.730051669510969E-6    1.430230931881651E-5    3.179705720364691E-6    1.949365614954144E-6   -6.856526177185491E-1   -6.804959359279954E-1
 1.587000000000000E+10  -6.609241648383342E-1   -7.061491328349793E-1    1.306407674623738E-6    1.241827232235618E-5    1.671619641057584E-6   -1.828842055318988E-5   -6.902028553965436E-1   -6.761579369008577E-1
 1.588000000000000E+10  -6.651883555868090E-1   -7.013472517300432E-1   -2.014604876730034E-5    8.012791779365746E-6    6.447718888819732E-6    3.945011452431477E-7   -6.948624434698434E-1   -6.717628123785939E-1
 1.589000000000000E+10  -6.701138287041977E-1   -6.963801730397059E-1    3.127976805572324E-6   -3.643046282643054E-6   -1.584457983366091E-5    1.179856553806627E-5   -6.994002068714147E-1   -6.673652890384113E-1
 1.590000000000000E+10  -6.752531973963487E-1   -6.913378109026663E-1    1.035224655683590E-5   -1.488678521960303E-5    2.488158887129139E-5   -1.421352432145324E-6   -7.037827248143953E-1   -6.630095482605519E-1
